 (1745775054.129569)  can0  18FEE61C   [8]  5B 00 00 00 1D FC 00 00
 (1745775054.129570)  can0  18FEE71C   [8]  06 00 CA FF FB FF 00 00
 (1745775054.130199)  can0       200   [8]  00 00 02 00 FA 00 64 01
 (1745775054.130200)  can0       180   [8]  F6 DB 00 00 00 00 00 00
 (1745775054.132803)  can0  18FEE81C   [8]  50 59 0F 5B D6 59 25 00
 (1745775054.132804)  can0  18FEF31C   [8]  2A 03 70 4B 7F 8D 50 B2
 (1745775054.133454)  can0  18FEF41C   [8]  64 51 00 00 22 3B 05 00
 (1745775054.133455)  can0  18FEF61C   [8]  2C 04 08 00 00 00 00 00
 (1745775054.150402)  can0       200   [8]  00 00 02 00 FA 00 64 01
 (1745775054.150403)  can0  18FEE61C   [8]  5A 00 00 00 1A FC 00 00
 (1745775054.150404)  can0       300   [1]  00
 (1745775054.151730)  can0       180   [8]  F6 DB 00 00 00 00 00 00
 (1745775054.151731)  can0  18FEE71C   [8]  07 00 C9 FF FB FF 00 00
 (1745775054.152808)  can0       280   [8]  00 31 47 02 01 02 00 00
 (1745775054.170179)  can0  18FEE61C   [8]  56 00 01 00 1C FC 00 00
 (1745775054.170181)  can0       200   [8]  00 00 02 00 FA 00 64 01
 (1745775054.171241)  can0  18FEE71C   [8]  08 00 C7 FF FA FF 00 00
 (1745775054.171242)  can0       180   [8]  F6 DB 00 00 00 00 00 00
 (1745775054.190070)  can0  18FEE61C   [8]  57 00 02 00 1A FC 00 00
 (1745775054.190071)  can0       200   [8]  00 00 02 00 FA 00 64 01
 (1745775054.191106)  can0  18FEE71C   [8]  06 00 C9 FF F8 FF 00 00
 (1745775054.191107)  can0       180   [8]  F6 DB 00 00 00 00 00 00
 (1745775054.210152)  can0  18FEE61C   [8]  54 00 04 00 1C FC 00 00
 (1745775054.210153)  can0       200   [8]  00 00 02 00 FA 00 64 01
 (1745775054.211279)  can0  18FEE71C   [8]  05 00 CA FF F6 FF 00 00
 (1745775054.211280)  can0       180   [8]  F6 DB 00 00 00 00 00 00
 (1745775054.220394)  can0       200   [8]  00 00 02 00 FA 00 64 01
 (1745775054.220395)  can0       180   [8]  F6 DB 00 00 00 00 00 00
 (1745775054.231694)  can0  18FEE61C   [8]  56 00 05 00 1A FC 00 00
 (1745775054.231695)  can0  18FEE71C   [8]  06 00 CB FF F5 FF 00 00
 (1745775054.238277)  can0  18FEE81C   [8]  4F 59 10 5B D4 59 1F 00
 (1745775054.238278)  can0  18FEF31C   [8]  2A 03 70 4B 7F 8D 50 B2
 (1745775054.239117)  can0  18FEF41C   [8]  64 51 00 00 22 3B 05 00
 (1745775054.239118)  can0  18FEF61C   [8]  2C 04 09 00 00 00 00 00
 (1745775054.240413)  can0       200   [8]  00 00 02 00 FA 00 64 01
 (1745775054.240414)  can0       180   [8]  F6 DB 00 00 00 00 00 00
 (1745775054.251420)  can0  18FEE61C   [8]  55 00 06 00 1C FC 00 00
 (1745775054.251421)  can0  18FEE71C   [8]  08 00 CE FF F4 FF 00 00
 (1745775054.260796)  can0       200   [8]  00 00 02 00 FA 00 64 01
 (1745775054.260797)  can0       180   [8]  F6 DB 00 00 00 00 00 00
 (1745775054.273524)  can0  18FEE61C   [8]  57 00 06 00 1B FC 00 00
 (1745775054.273525)  can0  18FEE71C   [8]  0B 00 CC FF F2 FF 00 00
 (1745775054.280764)  can0       200   [8]  00 00 02 00 FA 00 64 01
 (1745775054.280765)  can0       180   [8]  F6 DB 00 00 00 00 00 00
 (1745775054.294026)  can0  18FEE61C   [8]  56 00 05 00 1C FC 00 00
 (1745775054.294027)  can0  18FEE71C   [8]  0F 00 CF FF F2 FF 00 00
 (1745775054.300428)  can0       200   [8]  00 00 02 00 FA 00 64 01
 (1745775054.300429)  can0       180   [8]  F6 DB 00 00 00 00 00 00
 (1745775054.313661)  can0  18FEE61C   [8]  56 00 04 00 1D FC 00 00
 (1745775054.313662)  can0  18FEE71C   [8]  12 00 CD FF F3 FF 00 00
 (1745775054.320492)  can0       200   [8]  00 00 02 00 FA 00 64 01
 (1745775054.320493)  can0       180   [8]  F6 DB 00 00 00 00 00 00
 (1745775054.334774)  can0  18FEE61C   [8]  57 00 03 00 1C FC 00 00
 (1745775054.334775)  can0  18FEE71C   [8]  14 00 D2 FF F3 FF 00 00
 (1745775054.340719)  can0       200   [8]  00 00 02 00 FA 00 64 01
 (1745775054.340720)  can0       180   [8]  F6 DB 00 00 00 00 00 00
 (1745775054.343674)  can0  18FEE81C   [8]  4E 59 11 5B D2 59 14 00
 (1745775054.343675)  can0  18FEF31C   [8]  29 03 70 4B 7F 8D 50 B2
 (1745775054.344824)  can0  18FEF41C   [8]  64 51 00 00 24 3B 05 00
 (1745775054.344826)  can0  18FEF61C   [8]  2C 04 0A 00 00 00 00 00
 (1745775054.354603)  can0  18FEE61C   [8]  58 00 02 00 1E FC 00 00
 (1745775054.354604)  can0  18FEE71C   [8]  14 00 CE FF F1 FF 00 00
 (1745775054.360844)  can0       200   [8]  00 00 02 00 FA 00 64 01
 (1745775054.360845)  can0       180   [8]  F6 DB 00 00 00 00 00 00
 (1745775054.376025)  can0  18FEE61C   [8]  5B 00 01 00 1C FC 00 00
 (1745775054.376026)  can0  18FEE71C   [8]  14 00 CF FF EF FF 00 00
 (1745775054.380791)  can0       200   [8]  00 00 02 00 FA 00 64 01
 (1745775054.380792)  can0       180   [8]  F6 DB 00 00 00 00 00 00
 (1745775054.395841)  can0  18FEE61C   [8]  58 00 00 00 1E FC 00 00
 (1745775054.395842)  can0  18FEE71C   [8]  16 00 CD FF EF FF 00 00
 (1745775054.400322)  can0       200   [8]  00 00 02 00 FA 00 64 01
 (1745775054.400324)  can0       180   [8]  F6 DB 00 00 00 00 00 00
 (1745775054.416959)  can0  18FEE61C   [8]  5A 00 01 00 1B FC 00 00
 (1745775054.416960)  can0  18FEE71C   [8]  15 00 CC FF EE FF 00 00
 (1745775054.420466)  can0       200   [8]  00 00 02 00 FA 00 64 01
 (1745775054.420467)  can0       180   [8]  F6 DB 00 00 00 00 00 00
 (1745775054.430257)  can0       200   [8]  00 00 02 00 FA 00 64 01
 (1745775054.430258)  can0       180   [8]  F6 DB 00 00 00 00 00 00
 (1745775054.436261)  can0  18FEE61C   [8]  56 00 00 00 1E FC 00 00
 (1745775054.436263)  can0  18FEE71C   [8]  14 00 CA FF ED FF 00 00
 (1745775054.447576)  can0  18FEE81C   [8]  4E 59 13 5B D2 59 0E 00
 (1745775054.447577)  can0  18FEF31C   [8]  29 03 70 4B 7F 8D 50 B2
 (1745775054.449187)  can0  18FEF41C   [8]  64 51 00 00 25 3B 05 00
 (1745775054.449188)  can0  18FEF61C   [8]  2C 04 0B 00 00 00 00 00
 (1745775054.450282)  can0       200   [8]  00 00 02 00 FA 00 64 01
 (1745775054.450283)  can0       180   [8]  F6 DB 00 00 00 00 00 00
 (1745775054.456498)  can0  18FEE61C   [8]  57 00 00 00 1B FC 00 00
 (1745775054.456499)  can0  18FEE71C   [8]  14 00 C8 FF EC FF 00 00
 (1745775054.470342)  can0       200   [8]  00 00 02 00 FA 00 64 01
 (1745775054.470343)  can0       180   [8]  F6 DB 00 00 00 00 00 00
 (1745775054.478039)  can0  18FEE61C   [8]  55 00 00 00 1D FC 00 00
 (1745775054.478041)  can0  18FEE71C   [8]  14 00 CA FF ED FF 00 00
 (1745775054.490365)  can0       200   [8]  00 00 02 00 FA 00 64 01
 (1745775054.490366)  can0       180   [8]  F6 DB 00 00 00 00 00 00
 (1745775054.498041)  can0  18FEE61C   [8]  56 00 00 00 1B FC 00 00
 (1745775054.498042)  can0  18FEE71C   [8]  15 00 C9 FF ED FF 00 00
 (1745775054.510747)  can0       200   [8]  00 00 02 00 FA 00 64 01
 (1745775054.510748)  can0       180   [8]  F6 DB 00 00 00 00 00 00
 (1745775054.517384)  can0  18FEE61C   [8]  55 00 FF FF 1C FC 00 00
 (1745775054.517385)  can0  18FEE71C   [8]  15 00 CE FF EE FF 00 00
 (1745775054.530691)  can0       200   [8]  00 00 02 00 FA 00 64 01
 (1745775054.530692)  can0       180   [8]  F6 DB 00 00 00 00 00 00
 (1745775054.539254)  can0  18FEE61C   [8]  54 00 FE FF 1C FC 00 00
 (1745775054.539255)  can0  18FEE71C   [8]  15 00 CD FF EE FF 00 00
 (1745775054.550331)  can0       200   [8]  00 00 02 00 FA 00 64 01
 (1745775054.550332)  can0       300   [1]  00
 (1745775054.550333)  can0       180   [8]  F6 DB 00 00 00 00 00 00
 (1745775054.551615)  can0       280   [8]  00 31 47 02 01 02 00 00
 (1745775054.551616)  can0  18FEE81C   [8]  4F 59 13 5B D3 59 0C 00
 (1745775054.553021)  can0  18FEF31C   [8]  29 03 70 4B 7F 8D 50 B2
 (1745775054.553022)  can0  18FEF41C   [8]  64 51 00 00 27 3B 05 00
 (1745775054.554189)  can0  18FEF61C   [8]  2C 04 0D 00 00 00 00 00
 (1745775054.558746)  can0  18FEE61C   [8]  54 00 FF FF 1B FC 00 00
 (1745775054.558747)  can0  18FEE71C   [8]  14 00 D2 FF EF FF 00 00
 (1745775054.570305)  can0       200   [8]  00 00 02 00 FA 00 64 01
 (1745775054.570306)  can0       180   [8]  F6 DB 00 00 00 00 00 00
 (1745775054.580398)  can0  18FEE61C   [8]  54 00 FF FF 1D FC 00 00
 (1745775054.580399)  can0  18FEE71C   [8]  13 00 CE FF F1 FF 00 00
 (1745775054.590853)  can0       200   [8]  00 00 02 00 FA 00 64 01
 (1745775054.590855)  can0       180   [8]  F6 DB 00 00 00 00 00 00
 (1745775054.599803)  can0  18FEE61C   [8]  55 00 FF FF 1B FC 00 00
 (1745775054.599804)  can0  18FEE71C   [8]  13 00 D0 FF F1 FF 00 00
 (1745775054.610691)  can0       200   [8]  00 00 02 00 FA 00 64 01
 (1745775054.610692)  can0       180   [8]  F6 DB 00 00 00 00 00 00
 (1745775054.620952)  can0       200   [8]  00 00 02 00 FA 00 64 01
 (1745775054.620954)  can0  18FEE61C   [8]  53 00 FF FF 1C FC 00 00
 (1745775054.621560)  can0       180   [8]  F6 DB 00 00 00 00 00 00
 (1745775054.621561)  can0  18FEE71C   [8]  12 00 CA FF F2 FF 00 00
 (1745775054.640724)  can0  18FEE61C   [8]  53 00 FF FF 1A FC 00 00
 (1745775054.640725)  can0       200   [8]  00 00 02 00 FA 00 64 01
 (1745775054.641319)  can0  18FEE71C   [8]  12 00 C7 FF F4 FF 00 00
 (1745775054.641320)  can0       180   [8]  F6 DB 00 00 00 00 00 00
 (1745775054.657355)  can0  18FEE81C   [8]  4F 59 13 5B D5 59 06 00
 (1745775054.657356)  can0  18FEF31C   [8]  29 03 70 4B 7F 8D 50 B2
 (1745775054.658203)  can0  18FEF41C   [8]  64 51 00 00 27 3B 05 00
 (1745775054.658204)  can0  18FEF61C   [8]  2C 04 0E 00 00 00 00 00
 (1745775054.660615)  can0  18FEE61C   [8]  4D 00 FE FF 1D FC 00 00
 (1745775054.660616)  can0       200   [8]  00 00 02 00 FA 00 64 01
 (1745775054.661267)  can0  18FEE71C   [8]  11 00 C4 FF F4 FF 00 00
 (1745775054.661268)  can0       180   [8]  F6 DB 00 00 00 00 00 00
 (1745775054.680722)  can0       200   [8]  00 00 02 00 FA 00 64 01
 (1745775054.680723)  can0       180   [8]  F6 DB 00 00 00 00 00 00
 (1745775054.682189)  can0  18FEE61C   [8]  4C 00 FE FF 1A FC 00 00
 (1745775054.682190)  can0  18FEE71C   [8]  0F 00 C0 FF F3 FF 00 00
 (1745775054.700408)  can0       200   [8]  00 00 02 00 FA 00 64 01
 (1745775054.700409)  can0       180   [8]  F6 DB 00 00 00 00 00 00
 (1745775054.701362)  can0  18FEE61C   [8]  48 00 FF FF 1C FC 00 00
 (1745775054.701363)  can0  18FEE71C   [8]  0E 00 C1 FF F3 FF 00 00
 (1745775054.720474)  can0       200   [8]  00 00 02 00 FA 00 64 01
 (1745775054.720475)  can0       180   [8]  F6 DB 00 00 00 00 00 00
 (1745775054.722757)  can0  18FEE61C   [8]  47 00 FF FF 1B FC 00 00
 (1745775054.722758)  can0  18FEE71C   [8]  0D 00 BF FF F2 FF 00 00
 (1745775054.740717)  can0       200   [8]  00 00 02 00 FA 00 64 01
 (1745775054.740718)  can0       180   [8]  F6 DB 00 00 00 00 00 00
 (1745775054.742206)  can0  18FEE61C   [8]  45 00 FF FF 1B FC 00 00
 (1745775054.742207)  can0  18FEE71C   [8]  0D 00 C6 FF F2 FF 00 00
 (1745775054.760770)  can0       200   [8]  00 00 02 00 FA 00 64 01
 (1745775054.760771)  can0       180   [8]  F6 DB 00 00 00 00 00 00
 (1745775054.761421)  can0  18FEE81C   [8]  4E 59 0B 5B D7 59 03 00
 (1745775054.761422)  can0  18FEF31C   [8]  29 03 70 4B 7F 8D 50 B2
 (1745775054.762937)  can0  18FEF41C   [8]  64 51 00 00 29 3B 05 00
 (1745775054.762939)  can0  18FEF61C   [8]  2C 04 0F 00 00 00 00 00
 (1745775054.764398)  can0  18FEE61C   [8]  45 00 00 00 1B FC 00 00
 (1745775054.764399)  can0  18FEE71C   [8]  0D 00 C6 FF F2 FF 00 00
 (1745775054.780784)  can0       200   [8]  00 00 02 00 FA 00 64 01
 (1745775054.780785)  can0       180   [8]  F6 DB 00 00 00 00 00 00
 (1745775054.783622)  can0  18FEE61C   [8]  44 00 00 00 1B FC 00 00
 (1745775054.783624)  can0  18FEE71C   [8]  0C 00 CE FF F2 FF 00 00
 (1745775054.800323)  can0       200   [8]  00 00 02 00 FA 00 64 01
 (1745775054.800324)  can0       180   [8]  F6 DB 00 00 00 00 00 00
 (1745775054.805399)  can0  18FEE61C   [8]  44 00 00 00 1D FC 00 00
 (1745775054.805400)  can0  18FEE71C   [8]  0D 00 CE FF F3 FF 00 00
 (1745775054.820324)  can0       200   [8]  00 00 02 00 FA 00 64 01
 (1745775054.820326)  can0       180   [8]  F6 DB 00 00 00 00 00 00
 (1745775054.824846)  can0  18FEE61C   [8]  46 00 00 00 1B FC 00 00
 (1745775054.824847)  can0  18FEE71C   [8]  0F 00 D6 FF F3 FF 00 00
 (1745775054.840700)  can0       200   [8]  00 00 02 00 FA 00 64 01
 (1745775054.840701)  can0       180   [8]  F6 DB 00 00 00 00 00 00
 (1745775054.846390)  can0  18FEE61C   [8]  46 00 00 00 1C FC 00 00
 (1745775054.846391)  can0  18FEE71C   [8]  11 00 D7 FF F4 FF 00 00
 (1745775054.850456)  can0       200   [8]  00 00 02 00 FA 00 64 01
 (1745775054.850457)  can0       180   [8]  F6 DB 00 00 00 00 00 00
 (1745775054.866014)  can0  18FEE81C   [8]  4E 59 FF 5A D7 59 05 00
 (1745775054.866015)  can0  18FEF31C   [8]  29 03 70 4B 7F 8D 50 B2
 (1745775054.866780)  can0  18FEF41C   [8]  64 51 00 00 2A 3B 05 00
 (1745775054.866781)  can0  18FEF61C   [8]  2C 04 10 00 00 00 00 00
 (1745775054.867871)  can0  18FEE61C   [8]  4A 00 00 00 19 FC 00 00
 (1745775054.867872)  can0  18FEE71C   [8]  11 00 D7 FF F2 FF 00 00
 (1745775054.870911)  can0       200   [8]  00 00 02 00 FA 00 64 01
 (1745775054.870912)  can0       180   [8]  F6 DB 00 00 00 00 00 00
 (1745775054.885364)  can0  18FEE61C   [8]  49 00 00 00 1B FC 00 00
 (1745775054.885366)  can0  18FEE71C   [8]  11 00 D5 FF F0 FF 00 00
 (1745775054.890843)  can0       200   [8]  00 00 02 00 FA 00 64 01
 (1745775054.890845)  can0       180   [8]  F6 DB 00 00 00 00 00 00
 (1745775054.907382)  can0  18FEE61C   [8]  4B 00 00 00 19 FC 00 00
 (1745775054.907383)  can0  18FEE71C   [8]  11 00 D0 FF EE FF 00 00
 (1745775054.910773)  can0       200   [8]  00 00 02 00 FA 00 64 01
 (1745775054.910774)  can0       180   [8]  F6 DB 00 00 00 00 00 00
 (1745775054.926333)  can0  18FEE61C   [8]  48 00 00 00 1A FC 00 00
 (1745775054.926334)  can0  18FEE71C   [8]  11 00 D0 FF EE FF 00 00
 (1745775054.930326)  can0       200   [8]  00 00 02 00 FA 00 64 01
 (1745775054.930327)  can0       180   [8]  F6 DB 00 00 00 00 00 00
 (1745775054.949961)  can0  18FEE61C   [8]  49 00 00 00 19 FC 00 00
 (1745775054.949962)  can0       200   [8]  00 00 02 00 FA 00 64 01
 (1745775054.951152)  can0  18FEE71C   [8]  0F 00 CA FF EC FF 00 00
 (1745775054.951153)  can0       300   [1]  00
 (1745775054.951153)  can0       180   [8]  F6 DB 00 00 00 00 00 00
 (1745775054.952264)  can0       280   [8]  00 31 47 02 01 02 00 00
 (1745775054.967599)  can0  18FEE61C   [8]  46 00 00 00 1A FC 00 00
 (1745775054.967601)  can0  18FEE71C   [8]  0D 00 CB FF EB FF 00 00
 (1745775054.970375)  can0       200   [8]  00 00 02 00 FA 00 64 01
 (1745775054.970377)  can0  18FEE81C   [8]  4E 59 F8 5A D7 59 06 00
 (1745775054.971421)  can0       180   [8]  F6 DB 00 00 00 00 00 00
 (1745775054.971421)  can0  18FEF31C   [8]  29 03 70 4B 7F 8D 50 B2
 (1745775054.972575)  can0  18FEF41C   [8]  64 51 00 00 2B 3B 05 00
 (1745775054.972576)  can0  18FEF61C   [8]  2C 04 07 00 00 00 00 00
 (1745775054.989068)  can0  18FEE61C   [8]  45 00 00 00 1A FC 00 00
 (1745775054.989069)  can0  18FEE71C   [8]  0B 00 C5 FF EA FF 00 00
 (1745775054.990425)  can0       200   [8]  00 00 02 00 FA 00 64 01
 (1745775054.990426)  can0       180   [8]  F6 DB 00 00 00 00 00 00
 (1745775055.008460)  can0  18FEE61C   [8]  44 00 00 00 1A FC 00 00
 (1745775055.008461)  can0  18FEE71C   [8]  0A 00 C8 FF EA FF 00 00
 (1745775055.010404)  can0       200   [8]  00 00 02 00 FA 00 64 01
 (1745775055.010405)  can0       180   [8]  F6 DB 00 00 00 00 00 00
 (1745775055.030298)  can0  18FEE61C   [8]  42 00 00 00 1B FC 00 00
 (1745775055.030300)  can0       200   [8]  00 00 02 00 FA 00 64 01
 (1745775055.030931)  can0  18FEE71C   [8]  0B 00 C5 FF EB FF 00 00
 (1745775055.030933)  can0       180   [8]  F6 DB 00 00 00 00 00 00
 (1745775055.049728)  can0  18FEE61C   [8]  42 00 00 00 19 FC 00 00
 (1745775055.049729)  can0  18FEE71C   [8]  0E 00 CA FF ED FF 00 00
 (1745775055.050316)  can0       200   [8]  00 00 02 00 FA 00 64 01
 (1745775055.050317)  can0       180   [8]  F6 DB 00 00 00 00 00 00
 (1745775055.070304)  can0       200   [8]  00 00 02 00 FA 00 64 01
 (1745775055.070305)  can0       180   [8]  F6 DB 00 00 00 00 00 00
 (1745775055.071794)  can0  18FEE61C   [8]  40 00 00 00 1C FC 00 00
 (1745775055.071795)  can0  18FEE71C   [8]  0E 00 CA FF EE FF 00 00
 (1745775055.075576)  can0  18FEE81C   [8]  4F 59 EE 5A D7 59 06 00
 (1745775055.075577)  can0  18FEF31C   [8]  29 03 70 4B 7F 8D 50 B2
 (1745775055.076370)  can0  18FEF41C   [8]  64 51 00 00 2C 3B 05 00
 (1745775055.076371)  can0  18FEF61C   [8]  2C 04 08 00 00 00 00 00
 (1745775055.080847)  can0       200   [8]  00 00 02 00 FA 00 64 01
 (1745775055.080848)  can0       180   [8]  F6 DB 00 00 00 00 00 00
 (1745775055.091106)  can0  18FEE61C   [8]  42 00 00 00 1A FC 00 00
 (1745775055.091107)  can0  18FEE71C   [8]  0D 00 CB FF ED FF 00 00
 (1745775055.100511)  can0       200   [8]  00 00 02 00 FA 00 64 01
 (1745775055.100512)  can0       180   [8]  F6 DB 00 00 00 00 00 00
 (1745775055.110718)  can0  18FEE61C   [8]  3F 00 00 00 1C FC 00 00
 (1745775055.110719)  can0  18FEE71C   [8]  0C 00 CC FF ED FF 00 00
 (1745775055.120945)  can0       200   [8]  00 00 02 00 FA 00 64 01
 (1745775055.120947)  can0       180   [8]  F6 DB 00 00 00 00 00 00
 (1745775055.132392)  can0  18FEE61C   [8]  42 00 00 00 1A FC 00 00
 (1745775055.132393)  can0  18FEE71C   [8]  0C 00 CE FF EF FF 00 00
 (1745775055.140727)  can0       200   [8]  00 00 02 00 FA 00 64 01
 (1745775055.140728)  can0       180   [8]  F6 DB 00 00 00 00 00 00
 (1745775055.151471)  can0  18FEE61C   [8]  41 00 00 00 1C FC 00 00
 (1745775055.151472)  can0  18FEE71C   [8]  0D 00 D0 FF F1 FF 00 00
 (1745775055.160793)  can0       200   [8]  00 00 02 00 FA 00 64 01
 (1745775055.160795)  can0       180   [8]  F6 DB 00 00 00 00 00 00
 (1745775055.173352)  can0  18FEE61C   [8]  44 00 00 00 1A FC 00 00
 (1745775055.173354)  can0  18FEE71C   [8]  0E 00 CD FF F2 FF 00 00
 (1745775055.180037)  can0  18FEE81C   [8]  4F 59 E3 5A D6 59 05 00
 (1745775055.180038)  can0  18FEF31C   [8]  29 03 70 4B 7F 8D 50 B2
 (1745775055.181185)  can0       200   [8]  00 00 02 00 FA 00 64 01
 (1745775055.181186)  can0  18FEF41C   [8]  64 51 00 00 2C 3B 05 00
 (1745775055.182123)  can0       180   [8]  F6 DB 00 00 00 00 00 00
 (1745775055.182124)  can0  18FEF61C   [8]  2C 04 09 00 00 00 00 00
 (1745775055.192415)  can0  18FEE61C   [8]  44 00 00 00 1A FC 00 00
 (1745775055.192416)  can0  18FEE71C   [8]  10 00 CF FF F3 FF 00 00
 (1745775055.200420)  can0       200   [8]  00 00 02 00 FA 00 64 01
 (1745775055.200421)  can0       180   [8]  F6 DB 00 00 00 00 00 00
 (1745775055.213890)  can0  18FEE61C   [8]  45 00 00 00 1A FC 00 00
 (1745775055.213891)  can0  18FEE71C   [8]  0E 00 CC FF F2 FF 00 00
 (1745775055.220475)  can0       200   [8]  00 00 02 00 FA 00 64 01
 (1745775055.220476)  can0       180   [8]  F6 DB 00 00 00 00 00 00
 (1745775055.234082)  can0  18FEE61C   [8]  44 00 00 00 1A FC 00 00
 (1745775055.234084)  can0  18FEE71C   [8]  0C 00 CE FF F2 FF 00 00
 (1745775055.240700)  can0       200   [8]  00 00 02 00 FA 00 64 01
 (1745775055.240701)  can0       180   [8]  F6 DB 00 00 00 00 00 00
 (1745775055.253565)  can0  18FEE61C   [8]  44 00 00 00 1B FC 00 00
 (1745775055.253566)  can0  18FEE71C   [8]  0D 00 CA FF F3 FF 00 00
 (1745775055.260796)  can0       200   [8]  00 00 02 00 FA 00 64 01
 (1745775055.260798)  can0       180   [8]  F6 DB 00 00 00 00 00 00
 (1745775055.275333)  can0  18FEE61C   [8]  46 00 00 00 19 FC 00 00
 (1745775055.275335)  can0  18FEE71C   [8]  0D 00 D0 FF F4 FF 00 00
 (1745775055.280737)  can0       200   [8]  00 00 02 00 FA 00 64 01
 (1745775055.280738)  can0       180   [8]  F6 DB 00 00 00 00 00 00
 (1745775055.283922)  can0  18FEE81C   [8]  4F 59 DC 5A D6 59 05 00
 (1745775055.283923)  can0  18FEF31C   [8]  29 03 70 4B 7F 8D 50 B2
 (1745775055.285045)  can0  18FEF41C   [8]  64 51 00 00 2E 3B 05 00
 (1745775055.285046)  can0  18FEF61C   [8]  2C 04 0A 00 00 00 00 00
 (1745775055.290942)  can0       200   [8]  00 00 02 00 FA 00 64 01
 (1745775055.290943)  can0       180   [8]  F6 DB 00 00 00 00 00 00
 (1745775055.294773)  can0  18FEE61C   [8]  45 00 00 00 1B FC 00 00
 (1745775055.294774)  can0  18FEE71C   [8]  0E 00 CD FF F5 FF 00 00
 (1745775055.310772)  can0       200   [8]  00 00 02 00 FA 00 64 01
 (1745775055.310773)  can0       180   [8]  F6 DB 00 00 00 00 00 00
 (1745775055.314195)  can0  18FEE61C   [8]  48 00 00 00 19 FC 00 00
 (1745775055.314196)  can0  18FEE71C   [8]  12 00 D0 FF F6 FF 00 00
 (1745775055.330724)  can0       200   [8]  00 00 02 00 FA 00 64 01
 (1745775055.330725)  can0       180   [8]  F6 DB 00 00 00 00 00 00
 (1745775055.335806)  can0  18FEE61C   [8]  46 00 00 00 1C FC 00 00
 (1745775055.335807)  can0  18FEE71C   [8]  13 00 D0 FF F5 FF 00 00
 (1745775055.350418)  can0       200   [8]  00 00 02 00 FA 00 64 01
 (1745775055.350419)  can0       300   [1]  00
 (1745775055.350420)  can0       180   [8]  F6 DB 00 00 00 00 00 00
 (1745775055.351563)  can0       280   [8]  00 31 47 02 01 02 00 00
 (1745775055.355674)  can0  18FEE61C   [8]  49 00 00 00 1A FC 00 00
 (1745775055.355675)  can0  18FEE71C   [8]  12 00 D0 FF F3 FF 00 00
 (1745775055.370775)  can0       200   [8]  00 00 02 00 FA 00 64 01
 (1745775055.370777)  can0       180   [8]  F6 DB 00 00 00 00 00 00
 (1745775055.377402)  can0  18FEE61C   [8]  46 00 01 00 1C FC 00 00
 (1745775055.377403)  can0  18FEE71C   [8]  10 00 D1 FF F1 FF 00 00
 (1745775055.389049)  can0  18FEE81C   [8]  4E 59 D7 5A D6 59 04 00
 (1745775055.389051)  can0  18FEF31C   [8]  29 03 70 4B 7F 8D 50 B2
 (1745775055.389846)  can0  18FEF41C   [8]  64 51 00 00 2F 3B 05 00
 (1745775055.389847)  can0  18FEF61C   [8]  2C 04 0B 00 00 00 00 00
 (1745775055.391237)  can0       200   [8]  00 00 02 00 FA 00 64 01
 (1745775055.391238)  can0       180   [8]  F6 DB 00 00 00 00 00 00
 (1745775055.396994)  can0  18FEE61C   [8]  48 00 01 00 1B FC 00 00
 (1745775055.396996)  can0  18FEE71C   [8]  0F 00 CF FF F0 FF 00 00
 (1745775055.410774)  can0       200   [8]  00 00 02 00 FA 00 64 01
 (1745775055.410776)  can0       180   [8]  F6 DB 00 00 00 00 00 00
 (1745775055.418131)  can0  18FEE61C   [8]  47 00 00 00 1B FC 00 00
 (1745775055.418132)  can0  18FEE71C   [8]  10 00 D2 FF F2 FF 00 00
 (1745775055.430231)  can0       200   [8]  00 00 02 00 FA 00 64 01
 (1745775055.430232)  can0       180   [8]  F6 DB 00 00 00 00 00 00
 (1745775055.437467)  can0  18FEE61C   [8]  48 00 00 00 1B FC 00 00
 (1745775055.437469)  can0  18FEE71C   [8]  10 00 CE FF F2 FF 00 00
 (1745775055.450321)  can0       200   [8]  00 00 02 00 FA 00 64 01
 (1745775055.450321)  can0       180   [8]  F6 DB 00 00 00 00 00 00
 (1745775055.459514)  can0  18FEE61C   [8]  49 00 00 00 1A FC 00 00
 (1745775055.459515)  can0  18FEE71C   [8]  0F 00 D0 FF F2 FF 00 00
 (1745775055.470367)  can0       200   [8]  00 00 02 00 FA 00 64 01
 (1745775055.470368)  can0       180   [8]  F6 DB 00 00 00 00 00 00
 (1745775055.478580)  can0  18FEE61C   [8]  48 00 00 00 1B FC 00 00
 (1745775055.478581)  can0  18FEE71C   [8]  10 00 CC FF F1 FF 00 00
 (1745775055.490750)  can0       200   [8]  00 00 02 00 FA 00 64 01
 (1745775055.490751)  can0       180   [8]  F6 DB 00 00 00 00 00 00
 (1745775055.494252)  can0  18FEE81C   [8]  4E 59 D3 5A D6 59 03 00
 (1745775055.494254)  can0  18FEF31C   [8]  29 03 70 4B 7F 8D 50 B2
 (1745775055.495366)  can0  18FEF41C   [8]  64 51 00 00 30 3B 05 00
 (1745775055.495367)  can0  18FEF61C   [8]  2C 04 0C 00 00 00 00 00
 (1745775055.499083)  can0  18FEE61C   [8]  49 00 00 00 1A FC 00 00
 (1745775055.499085)  can0  18FEE71C   [8]  11 00 CF FF F1 FF 00 00
 (1745775055.500510)  can0       200   [8]  00 00 02 00 FA 00 64 01
 (1745775055.500511)  can0       180   [8]  F6 DB 00 00 00 00 00 00
 (1745775055.518169)  can0  18FEE61C   [8]  47 00 00 00 1C FC 00 00
 (1745775055.518171)  can0  18FEE71C   [8]  12 00 CD FF F2 FF 00 00
 (1745775055.520944)  can0       200   [8]  00 00 02 00 FA 00 64 01
 (1745775055.520945)  can0       180   [8]  F6 DB 00 00 00 00 00 00
 (1745775055.540170)  can0  18FEE61C   [8]  49 00 00 00 1A FC 00 00
 (1745775055.540171)  can0  18FEE71C   [8]  12 00 CF FF F1 FF 00 00
 (1745775055.540872)  can0       200   [8]  00 00 02 00 FA 00 64 01
 (1745775055.540873)  can0       180   [8]  F6 DB 00 00 00 00 00 00
 (1745775055.559352)  can0  18FEE61C   [8]  46 00 00 00 1C FC 00 00
 (1745775055.559353)  can0  18FEE71C   [8]  11 00 CE FF F1 FF 00 00
 (1745775055.560426)  can0       200   [8]  00 00 02 00 FA 00 64 01
 (1745775055.560427)  can0       180   [8]  F6 DB 00 00 00 00 00 00
 (1745775055.580767)  can0       200   [8]  00 00 02 00 FA 00 64 01
 (1745775055.580768)  can0  18FEE61C   [8]  49 00 00 00 1A FC 00 00
 (1745775055.581435)  can0       180   [8]  F6 DB 00 00 00 00 00 00
 (1745775055.581436)  can0  18FEE71C   [8]  10 00 D0 FF F0 FF 00 00
 (1745775055.599169)  can0  18FEE81C   [8]  4E 59 D0 5A D6 59 02 00
 (1745775055.599170)  can0  18FEF31C   [8]  29 03 70 4B 7F 8D 50 B2
 (1745775055.599911)  can0  18FEF41C   [8]  64 51 00 00 31 3B 05 00
 (1745775055.599912)  can0  18FEF61C   [8]  2C 04 0D 00 00 00 00 00
 (1745775055.601307)  can0  18FEE61C   [8]  47 00 00 00 1C FC 00 00
 (1745775055.601308)  can0  18FEE71C   [8]  11 00 D2 FF F0 FF 00 00
 (1745775055.610739)  can0       200   [8]  00 00 02 00 FA 00 64 01
 (1745775055.610740)  can0       180   [8]  F6 DB 00 00 00 00 00 00
 (1745775055.620797)  can0       200   [8]  00 00 02 00 FA 00 64 01
 (1745775055.620799)  can0  18FEE61C   [8]  49 00 00 00 1A FC 00 00
 (1745775055.621448)  can0       180   [8]  F6 DB 00 00 00 00 00 00
 (1745775055.621449)  can0  18FEE71C   [8]  12 00 D0 FF F0 FF 00 00
 (1745775055.640539)  can0  18FEE61C   [8]  47 00 FF FF 1C FC 00 00
 (1745775055.640540)  can0       200   [8]  00 00 02 00 FA 00 64 01
 (1745775055.641247)  can0  18FEE71C   [8]  11 00 D1 FF F0 FF 00 00
 (1745775055.641248)  can0       180   [8]  F6 DB 00 00 00 00 00 00
 (1745775055.660820)  can0       200   [8]  00 00 02 00 FA 00 64 01
 (1745775055.660821)  can0       180   [8]  F6 DB 00 00 00 00 00 00
 (1745775055.662089)  can0  18FEE61C   [8]  48 00 FF FF 1B FC 00 00
 (1745775055.662090)  can0  18FEE71C   [8]  0F 00 CC FF F0 FF 00 00
 (1745775055.680722)  can0       200   [8]  00 00 02 00 FA 00 64 01
 (1745775055.680723)  can0       180   [8]  F6 DB 00 00 00 00 00 00
 (1745775055.683254)  can0  18FEE61C   [8]  48 00 FF FF 1B FC 00 00
 (1745775055.683255)  can0  18FEE71C   [8]  0D 00 CF FF F0 FF 00 00
 (1745775055.700407)  can0       200   [8]  00 00 02 00 FA 00 64 01
 (1745775055.700408)  can0       180   [8]  F6 DB 00 00 00 00 00 00
 (1745775055.702609)  can0  18FEE61C   [8]  47 00 00 00 1B FC 00 00
 (1745775055.702610)  can0  18FEE71C   [8]  0A 00 CB FF EE FF 00 00
 (1745775055.703638)  can0  18FEE81C   [8]  4E 59 CD 5A D7 59 02 00
 (1745775055.703639)  can0  18FEF31C   [8]  29 03 70 4B 7F 8D 50 B2
 (1745775055.704898)  can0  18FEF41C   [8]  64 51 00 00 31 3B 05 00
 (1745775055.704899)  can0  18FEF61C   [8]  2C 04 0E 00 00 00 00 00
 (1745775055.720405)  can0       200   [8]  00 00 02 00 FA 00 64 01
 (1745775055.720406)  can0       180   [8]  F6 DB 00 00 00 00 00 00
 (1745775055.722187)  can0  18FEE61C   [8]  48 00 00 00 1A FC 00 00
 (1745775055.722188)  can0  18FEE71C   [8]  09 00 CE FF EE FF 00 00
 (1745775055.740721)  can0       200   [8]  00 00 02 00 FA 00 64 01
 (1745775055.740722)  can0       180   [8]  F6 DB 00 00 00 00 00 00
 (1745775055.743915)  can0  18FEE61C   [8]  47 00 00 00 1B FC 00 00
 (1745775055.743916)  can0  18FEE71C   [8]  0A 00 CB FF F0 FF 00 00
 (1745775055.750240)  can0       300   [1]  00
 (1745775055.750241)  can0       280   [8]  00 31 47 02 01 02 00 00
 (1745775055.760845)  can0       200   [8]  00 00 02 00 FA 00 64 01
 (1745775055.760846)  can0       180   [8]  F6 DB 00 00 00 00 00 00
 (1745775055.764187)  can0  18FEE61C   [8]  49 00 00 00 19 FC 00 00
 (1745775055.764189)  can0  18FEE71C   [8]  0C 00 CE FF F0 FF 00 00
 (1745775055.780664)  can0       200   [8]  00 00 02 00 FA 00 64 01
 (1745775055.780666)  can0       180   [8]  F6 DB 00 00 00 00 00 00
 (1745775055.783278)  can0  18FEE61C   [8]  47 00 00 00 1B FC 00 00
 (1745775055.783279)  can0  18FEE71C   [8]  0D 00 CD FF F1 FF 00 00
 (1745775055.800268)  can0       200   [8]  00 00 02 00 FA 00 64 01
 (1745775055.800269)  can0       180   [8]  F6 DB 00 00 00 00 00 00
 (1745775055.805073)  can0  18FEE61C   [8]  49 00 00 00 19 FC 00 00
 (1745775055.805074)  can0  18FEE71C   [8]  0C 00 CE FF F1 FF 00 00
 (1745775055.808501)  can0  18FEE81C   [8]  4E 59 CA 5A D6 59 01 00
 (1745775055.808502)  can0  18FEF31C   [8]  29 03 70 4B 7F 8D 50 B2
 (1745775055.809194)  can0  18FEF41C   [8]  64 51 00 00 33 3B 05 00
 (1745775055.809195)  can0  18FEF61C   [8]  2C 04 0F 00 00 00 00 00
 (1745775055.810873)  can0       200   [8]  00 00 02 00 FA 00 64 01
 (1745775055.810875)  can0       180   [8]  F6 DB 00 00 00 00 00 00
 (1745775055.826527)  can0  18FEE61C   [8]  46 00 00 00 1C FC 00 00
 (1745775055.826528)  can0  18FEE71C   [8]  0C 00 CD FF F2 FF 00 00
 (1745775055.830748)  can0       200   [8]  00 00 02 00 FA 00 64 01
 (1745775055.830749)  can0       180   [8]  F6 DB 00 00 00 00 00 00
 (1745775055.845923)  can0  18FEE61C   [8]  48 00 00 00 1A FC 00 00
 (1745775055.845925)  can0  18FEE71C   [8]  0C 00 C9 FF F1 FF 00 00
 (1745775055.850481)  can0       200   [8]  00 00 02 00 FA 00 64 01
 (1745775055.850482)  can0       180   [8]  F6 DB 00 00 00 00 00 00
 (1745775055.867005)  can0  18FEE61C   [8]  46 00 00 00 1B FC 00 00
 (1745775055.867006)  can0  18FEE71C   [8]  0D 00 CC FF F2 FF 00 00
 (1745775055.870820)  can0       200   [8]  00 00 02 00 FA 00 64 01
 (1745775055.870822)  can0       180   [8]  F6 DB 00 00 00 00 00 00
 (1745775055.886837)  can0  18FEE61C   [8]  48 00 00 00 1B FC 00 00
 (1745775055.886839)  can0  18FEE71C   [8]  0D 00 C9 FF F2 FF 00 00
 (1745775055.890820)  can0       200   [8]  00 00 02 00 FA 00 64 01
 (1745775055.890821)  can0       180   [8]  F6 DB 00 00 00 00 00 00
 (1745775055.908506)  can0  18FEE61C   [8]  48 00 01 00 1B FC 00 00
 (1745775055.908508)  can0  18FEE71C   [8]  0E 00 CF FF F3 FF 00 00
 (1745775055.910772)  can0       200   [8]  00 00 02 00 FA 00 64 01
 (1745775055.910773)  can0       180   [8]  F6 DB 00 00 00 00 00 00
 (1745775055.912985)  can0  18FEE81C   [8]  4E 59 C7 5A D6 59 01 00
 (1745775055.912986)  can0  18FEF31C   [8]  29 03 70 4B 7F 8D 50 B2
 (1745775055.913794)  can0  18FEF41C   [8]  64 51 00 00 34 3B 05 00
 (1745775055.913797)  can0  18FEF61C   [8]  2C 04 10 00 00 00 00 00
 (1745775055.928675)  can0  18FEE61C   [8]  47 00 01 00 1C FC 00 00
 (1745775055.928676)  can0  18FEE71C   [8]  0F 00 CC FF F3 FF 00 00
 (1745775055.930757)  can0       200   [8]  00 00 02 00 FA 00 64 01
 (1745775055.930758)  can0       180   [8]  F6 DB 00 00 00 00 00 00
 (1745775055.949862)  can0  18FEE61C   [8]  49 00 01 00 1A FC 00 00
 (1745775055.949863)  can0       200   [8]  00 00 02 00 FA 00 64 01
 (1745775055.950887)  can0  18FEE71C   [8]  0F 00 D2 FF F4 FF 00 00
 (1745775055.950888)  can0       180   [8]  F6 DB 00 00 00 00 00 00
 (1745775055.969448)  can0  18FEE61C   [8]  47 00 01 00 1C FC 00 00
 (1745775055.969450)  can0  18FEE71C   [8]  11 00 CF FF F5 FF 00 00
 (1745775055.970512)  can0       200   [8]  00 00 02 00 FA 00 64 01
 (1745775055.970514)  can0       180   [8]  F6 DB 00 00 00 00 00 00
 (1745775055.991020)  can0       200   [8]  00 00 02 00 FA 00 64 01
 (1745775055.991021)  can0  18FEE61C   [8]  49 00 01 00 1A FC 00 00
 (1745775055.991336)  can0       180   [8]  F6 DB 00 00 00 00 00 00
 (1745775055.991336)  can0  18FEE71C   [8]  13 00 D1 FF F5 FF 00 00
 (1745775056.010972)  can0       200   [8]  00 00 02 00 FA 00 64 01
 (1745775056.010974)  can0  18FEE61C   [8]  46 00 01 00 1C FC 00 00
 (1745775056.011222)  can0       180   [8]  F6 DB 00 00 00 00 00 00
 (1745775056.011223)  can0  18FEE71C   [8]  14 00 D1 FF F5 FF 00 00
 (1745775056.017420)  can0  18FEE81C   [8]  4E 59 C5 5A D5 59 02 00
 (1745775056.017421)  can0  18FEF31C   [8]  29 03 70 4B 7F 8D 50 B2
 (1745775056.018589)  can0  18FEF41C   [8]  64 51 00 00 35 3B 05 00
 (1745775056.018590)  can0  18FEF61C   [8]  2C 04 07 00 00 00 00 00
 (1745775056.030641)  can0       200   [8]  00 00 02 00 FA 00 64 01
 (1745775056.030642)  can0       180   [8]  F6 DB 00 00 00 00 00 00
 (1745775056.032647)  can0  18FEE61C   [8]  49 00 00 00 19 FC 00 00
 (1745775056.032648)  can0  18FEE71C   [8]  13 00 D0 FF F4 FF 00 00
 (1745775056.040773)  can0       200   [8]  00 00 02 00 FA 00 64 01
 (1745775056.040774)  can0       180   [8]  F6 DB 00 00 00 00 00 00
 (1745775056.054379)  can0  18FEE61C   [8]  49 00 00 00 1A FC 00 00
 (1745775056.054380)  can0  18FEE71C   [8]  11 00 D1 FF F4 FF 00 00
 (1745775056.060834)  can0       200   [8]  00 00 02 00 FA 00 64 01
 (1745775056.060835)  can0       180   [8]  F6 DB 00 00 00 00 00 00
 (1745775056.076486)  can0  18FEE61C   [8]  4A 00 FF FF 1A FC 00 00
 (1745775056.076487)  can0  18FEE71C   [8]  10 00 CE FF F3 FF 00 00
 (1745775056.080783)  can0       200   [8]  00 00 02 00 FA 00 64 01
 (1745775056.080784)  can0       180   [8]  F6 DB 00 00 00 00 00 00
 (1745775056.095923)  can0  18FEE61C   [8]  49 00 FF FF 1A FC 00 00
 (1745775056.095924)  can0  18FEE71C   [8]  0E 00 D1 FF F1 FF 00 00
 (1745775056.100491)  can0       200   [8]  00 00 02 00 FA 00 64 01
 (1745775056.100492)  can0       180   [8]  F6 DB 00 00 00 00 00 00
 (1745775056.117076)  can0  18FEE61C   [8]  48 00 FF FF 1C FC 00 00
 (1745775056.117077)  can0  18FEE71C   [8]  0C 00 CD FF F0 FF 00 00
 (1745775056.120820)  can0       200   [8]  00 00 02 00 FA 00 64 01
 (1745775056.120821)  can0       180   [8]  F6 DB 00 00 00 00 00 00
 (1745775056.122220)  can0  18FEE81C   [8]  4D 59 C4 5A D5 59 02 00
 (1745775056.122221)  can0  18FEF31C   [8]  29 03 70 4B 7F 8D 50 B2
 (1745775056.123095)  can0  18FEF41C   [8]  64 51 00 00 36 3B 05 00
 (1745775056.123097)  can0  18FEF61C   [8]  2C 04 08 00 00 00 00 00
 (1745775056.136809)  can0  18FEE61C   [8]  49 00 00 00 1B FC 00 00
 (1745775056.136810)  can0  18FEE71C   [8]  0B 00 D0 FF EF FF 00 00
 (1745775056.140820)  can0       200   [8]  00 00 02 00 FA 00 64 01
 (1745775056.140822)  can0       180   [8]  F6 DB 00 00 00 00 00 00
 (1745775056.150215)  can0       300   [1]  00
 (1745775056.150216)  can0       280   [8]  00 31 47 02 01 02 00 00
 (1745775056.156920)  can0  18FEE61C   [8]  47 00 00 00 1D FC 00 00
 (1745775056.156921)  can0  18FEE71C   [8]  0B 00 CA FF ED FF 00 00
 (1745775056.160826)  can0       200   [8]  00 00 02 00 FA 00 64 01
 (1745775056.160827)  can0       180   [8]  F6 DB 00 00 00 00 00 00
 (1745775056.178036)  can0  18FEE61C   [8]  49 00 FF FF 1A FC 00 00
 (1745775056.178037)  can0  18FEE71C   [8]  0D 00 CC FF ED FF 00 00
 (1745775056.180787)  can0       200   [8]  00 00 02 00 FA 00 64 01
 (1745775056.180788)  can0       180   [8]  F6 DB 00 00 00 00 00 00
 (1745775056.197440)  can0  18FEE61C   [8]  47 00 FF FF 1C FC 00 00
 (1745775056.197442)  can0  18FEE71C   [8]  10 00 CD FF EE FF 00 00
 (1745775056.200291)  can0       200   [8]  00 00 02 00 FA 00 64 01
 (1745775056.200292)  can0       180   [8]  F6 DB 00 00 00 00 00 00
 (1745775056.219005)  can0  18FEE61C   [8]  49 00 FF FF 19 FC 00 00
 (1745775056.219006)  can0  18FEE71C   [8]  11 00 CD FF F0 FF 00 00
 (1745775056.220405)  can0       200   [8]  00 00 02 00 FA 00 64 01
 (1745775056.220406)  can0       180   [8]  F6 DB 00 00 00 00 00 00
 (1745775056.226198)  can0  18FEE81C   [8]  4E 59 C2 5A D6 59 01 00
 (1745775056.226199)  can0  18FEF31C   [8]  29 03 70 4B 7F 8D 50 B2
 (1745775056.227389)  can0  18FEF41C   [8]  64 51 00 00 36 3B 05 00
 (1745775056.227390)  can0  18FEF61C   [8]  2C 04 09 00 00 00 00 00
 (1745775056.230526)  can0       200   [8]  00 00 02 00 FA 00 64 01
 (1745775056.230528)  can0       180   [8]  F6 DB 00 00 00 00 00 00
 (1745775056.238361)  can0  18FEE61C   [8]  47 00 FE FF 1B FC 00 00
 (1745775056.238362)  can0  18FEE71C   [8]  11 00 CE FF F1 FF 00 00
 (1745775056.250431)  can0       200   [8]  00 00 02 00 FA 00 64 01
 (1745775056.250432)  can0       180   [8]  F6 DB 00 00 00 00 00 00
 (1745775056.260323)  can0  18FEE61C   [8]  49 00 FE FF 1A FC 00 00
 (1745775056.260324)  can0  18FEE71C   [8]  11 00 CC FF F1 FF 00 00
 (1745775056.280646)  can0       200   [8]  00 00 02 00 FA 00 64 01
 (1745775056.280648)  can0       180   [8]  F6 DB 00 00 00 00 00 00
 (1745775056.281298)  can0  18FEE61C   [8]  47 00 FE FF 1B FC 00 00
 (1745775056.281299)  can0  18FEE71C   [8]  0F 00 CF FF F2 FF 00 00
 (1745775056.290431)  can0       200   [8]  00 00 02 00 FA 00 64 01
 (1745775056.290434)  can0       180   [8]  F6 DB 00 00 00 00 00 00
 (1745775056.300539)  can0  18FEE61C   [8]  48 00 FF FF 1B FC 00 00
 (1745775056.300540)  can0  18FEE71C   [8]  0D 00 CA FF F1 FF 00 00
 (1745775056.310792)  can0       200   [8]  00 00 02 00 FA 00 64 01
 (1745775056.310793)  can0       180   [8]  F6 DB 00 00 00 00 00 00
 (1745775056.322391)  can0  18FEE61C   [8]  48 00 00 00 1A FC 00 00
 (1745775056.322394)  can0  18FEE71C   [8]  0A 00 CE FF F0 FF 00 00
 (1745775056.330862)  can0       200   [8]  00 00 02 00 FA 00 64 01
 (1745775056.330863)  can0  18FEE81C   [8]  4E 59 BF 5A D7 59 01 00
 (1745775056.331438)  can0       180   [8]  F6 DB 00 00 00 00 00 00
 (1745775056.331439)  can0  18FEF31C   [8]  29 03 70 4B 7F 8D 50 B2
 (1745775056.332976)  can0  18FEF41C   [8]  64 51 00 00 38 3B 05 00
 (1745775056.332978)  can0  18FEF61C   [8]  2C 04 0A 00 00 00 00 00
 (1745775056.342173)  can0  18FEE61C   [8]  48 00 01 00 1B FC 00 00
 (1745775056.342174)  can0  18FEE71C   [8]  0A 00 C8 FF F0 FF 00 00
 (1745775056.350451)  can0       200   [8]  00 00 02 00 FA 00 64 01
 (1745775056.350452)  can0       180   [8]  F6 DB 00 00 00 00 00 00
 (1745775056.361298)  can0  18FEE61C   [8]  4A 00 02 00 1A FC 00 00
 (1745775056.361300)  can0  18FEE71C   [8]  0B 00 CE FF F1 FF 00 00
 (1745775056.370825)  can0       200   [8]  00 00 02 00 FA 00 64 01
 (1745775056.370826)  can0       180   [8]  F6 DB 00 00 00 00 00 00
 (1745775056.383036)  can0  18FEE61C   [8]  48 00 03 00 1C FC 00 00
 (1745775056.383037)  can0  18FEE71C   [8]  0D 00 CD FF F1 FF 00 00
 (1745775056.390878)  can0       200   [8]  00 00 02 00 FA 00 64 01
 (1745775056.390879)  can0       180   [8]  F6 DB 00 00 00 00 00 00
 (1745775056.402450)  can0  18FEE61C   [8]  4A 00 03 00 1A FC 00 00
 (1745775056.402451)  can0  18FEE71C   [8]  0F 00 D0 FF F2 FF 00 00
 (1745775056.410332)  can0       200   [8]  00 00 02 00 FA 00 64 01
 (1745775056.410333)  can0       180   [8]  F6 DB 00 00 00 00 00 00
 (1745775056.424372)  can0  18FEE61C   [8]  47 00 02 00 1C FC 00 00
 (1745775056.424374)  can0  18FEE71C   [8]  13 00 CF FF F5 FF 00 00
 (1745775056.430764)  can0       200   [8]  00 00 02 00 FA 00 64 01
 (1745775056.430765)  can0       180   [8]  F6 DB 00 00 00 00 00 00
 (1745775056.436771)  can0  18FEE81C   [8]  4E 59 BE 5A D6 59 01 00
 (1745775056.436772)  can0  18FEF31C   [8]  29 03 70 4B 7F 8D 50 B2
 (1745775056.438043)  can0  18FEF41C   [8]  64 51 00 00 39 3B 05 00
 (1745775056.438045)  can0  18FEF61C   [8]  2C 04 0B 00 00 00 00 00
 (1745775056.443639)  can0  18FEE61C   [8]  49 00 01 00 1A FC 00 00
 (1745775056.443640)  can0  18FEE71C   [8]  14 00 CE FF F6 FF 00 00
 (1745775056.450238)  can0       200   [8]  00 00 02 00 FA 00 64 01
 (1745775056.450239)  can0       180   [8]  F6 DB 00 00 00 00 00 00
 (1745775056.463739)  can0  18FEE61C   [8]  46 00 00 00 1C FC 00 00
 (1745775056.463741)  can0  18FEE71C   [8]  14 00 CF FF F7 FF 00 00
 (1745775056.470301)  can0       200   [8]  00 00 02 00 FA 00 64 01
 (1745775056.470302)  can0       180   [8]  F6 DB 00 00 00 00 00 00
 (1745775056.480349)  can0       200   [8]  00 00 02 00 FA 00 64 01
 (1745775056.480350)  can0       180   [8]  F6 DB 00 00 00 00 00 00
 (1745775056.485191)  can0  18FEE61C   [8]  47 00 00 00 1A FC 00 00
 (1745775056.485194)  can0  18FEE71C   [8]  13 00 CB FF F6 FF 00 00
 (1745775056.500425)  can0       200   [8]  00 00 02 00 FA 00 64 01
 (1745775056.500426)  can0       180   [8]  F6 DB 00 00 00 00 00 00
 (1745775056.506896)  can0  18FEE61C   [8]  46 00 00 00 1B FC 00 00
 (1745775056.506898)  can0  18FEE71C   [8]  11 00 CF FF F5 FF 00 00
 (1745775056.520781)  can0       200   [8]  00 00 02 00 FA 00 64 01
 (1745775056.520782)  can0       180   [8]  F6 DB 00 00 00 00 00 00
 (1745775056.526419)  can0  18FEE61C   [8]  47 00 01 00 1A FC 00 00
 (1745775056.526420)  can0  18FEE71C   [8]  11 00 CB FF F3 FF 00 00
 (1745775056.540745)  can0       200   [8]  00 00 02 00 FA 00 64 01
 (1745775056.540746)  can0  18FEE81C   [8]  4D 59 BC 5A D6 59 02 00
 (1745775056.541368)  can0       180   [8]  F6 DB 00 00 00 00 00 00
 (1745775056.541370)  can0  18FEF31C   [8]  29 03 70 4B 7F 8D 50 B2
 (1745775056.542837)  can0  18FEF41C   [8]  64 51 00 00 3A 3B 05 00
 (1745775056.542838)  can0  18FEF61C   [8]  2C 04 0C 00 00 00 00 00
 (1745775056.546675)  can0  18FEE61C   [8]  47 00 02 00 1A FC 00 00
 (1745775056.546676)  can0  18FEE71C   [8]  10 00 CF FF F3 FF 00 00
 (1745775056.550204)  can0       300   [1]  00
 (1745775056.550205)  can0       280   [8]  00 31 47 02 01 02 00 00
 (1745775056.560633)  can0       200   [8]  00 00 02 00 FA 00 64 01
 (1745775056.560634)  can0       180   [8]  F6 DB 00 00 00 00 00 00
 (1745775056.567970)  can0  18FEE61C   [8]  46 00 02 00 1B FC 00 00
 (1745775056.567971)  can0  18FEE71C   [8]  0F 00 CA FF F1 FF 00 00
 (1745775056.580772)  can0       200   [8]  00 00 02 00 FA 00 64 01
 (1745775056.580773)  can0       180   [8]  F6 DB 00 00 00 00 00 00
 (1745775056.587804)  can0  18FEE61C   [8]  47 00 01 00 1A FC 00 00
 (1745775056.587805)  can0  18FEE71C   [8]  0F 00 CD FF EF FF 00 00
 (1745775056.600536)  can0       200   [8]  00 00 02 00 FA 00 64 01
 (1745775056.600537)  can0       180   [8]  F6 DB 00 00 00 00 00 00
 (1745775056.609291)  can0  18FEE61C   [8]  45 00 00 00 1C FC 00 00
 (1745775056.609293)  can0  18FEE71C   [8]  0E 00 CB FF EE FF 00 00
 (1745775056.620846)  can0       200   [8]  00 00 02 00 FA 00 64 01
 (1745775056.620847)  can0       180   [8]  F6 DB 00 00 00 00 00 00
 (1745775056.628687)  can0  18FEE61C   [8]  49 00 FF FF 1A FC 00 00
 (1745775056.628688)  can0  18FEE71C   [8]  0F 00 CF FF EE FF 00 00
 (1745775056.640732)  can0       200   [8]  00 00 02 00 FA 00 64 01
 (1745775056.640734)  can0       180   [8]  F6 DB 00 00 00 00 00 00
 (1745775056.645824)  can0  18FEE81C   [8]  4D 59 BA 5A D5 59 01 00
 (1745775056.645825)  can0  18FEF31C   [8]  29 03 70 4B 7F 8D 50 B2
 (1745775056.646555)  can0  18FEF41C   [8]  64 51 00 00 3B 3B 05 00
 (1745775056.646556)  can0  18FEF61C   [8]  2C 04 0D 00 00 00 00 00
 (1745775056.648549)  can0  18FEE61C   [8]  47 00 FD FF 1C FC 00 00
 (1745775056.648550)  can0  18FEE71C   [8]  12 00 D1 FF EF FF 00 00
 (1745775056.660697)  can0       200   [8]  00 00 02 00 FA 00 64 01
 (1745775056.660698)  can0       180   [8]  F6 DB 00 00 00 00 00 00
 (1745775056.669855)  can0  18FEE61C   [8]  49 00 FD FF 1A FC 00 00
 (1745775056.669857)  can0  18FEE71C   [8]  11 00 CE FF EE FF 00 00
 (1745775056.680694)  can0       200   [8]  00 00 02 00 FA 00 64 01
 (1745775056.680695)  can0       180   [8]  F6 DB 00 00 00 00 00 00
 (1745775056.689823)  can0  18FEE61C   [8]  47 00 FC FF 1C FC 00 00
 (1745775056.689824)  can0  18FEE71C   [8]  11 00 CE FF ED FF 00 00
 (1745775056.690465)  can0       200   [8]  00 00 02 00 FA 00 64 01
 (1745775056.690466)  can0       180   [8]  F6 DB 00 00 00 00 00 00
 (1745775056.710257)  can0       200   [8]  00 00 02 00 FA 00 64 01
 (1745775056.710258)  can0       180   [8]  F6 DB 00 00 00 00 00 00
 (1745775056.711883)  can0  18FEE61C   [8]  48 00 FD FF 1A FC 00 00
 (1745775056.711884)  can0  18FEE71C   [8]  0F 00 C8 FF EC FF 00 00
 (1745775056.730424)  can0       200   [8]  00 00 02 00 FA 00 64 01
 (1745775056.730425)  can0  18FEE61C   [8]  46 00 FE FF 1B FC 00 00
 (1745775056.731466)  can0       180   [8]  F6 DB 00 00 00 00 00 00
 (1745775056.731467)  can0  18FEE71C   [8]  0E 00 CC FF EC FF 00 00
 (1745775056.750356)  can0  18FEE81C   [8]  4D 59 B8 5A D7 59 01 00
 (1745775056.750357)  can0       200   [8]  00 00 02 00 FA 00 64 01
 (1745775056.751491)  can0  18FEF31C   [8]  29 03 70 4B 7F 8D 50 B2
 (1745775056.751493)  can0       180   [8]  F6 DB 00 00 00 00 00 00
 (1745775056.752477)  can0  18FEF41C   [8]  64 51 00 00 3B 3B 05 00
 (1745775056.752479)  can0  18FEF61C   [8]  2C 04 0E 00 00 00 00 00
 (1745775056.753753)  can0  18FEE61C   [8]  47 00 FF FF 1B FC 00 00
 (1745775056.753753)  can0  18FEE71C   [8]  0E 00 C9 FF ED FF 00 00
 (1745775056.770666)  can0  18FEE61C   [8]  47 00 FF FF 1A FC 00 00
 (1745775056.770668)  can0       200   [8]  00 00 02 00 FA 00 64 01
 (1745775056.771274)  can0  18FEE71C   [8]  0F 00 D0 FF EF FF 00 00
 (1745775056.771275)  can0       180   [8]  F6 DB 00 00 00 00 00 00
 (1745775056.790853)  can0       200   [8]  00 00 02 00 FA 00 64 01
 (1745775056.790854)  can0       180   [8]  F6 DB 00 00 00 00 00 00
 (1745775056.792020)  can0  18FEE61C   [8]  47 00 FF FF 1B FC 00 00
 (1745775056.792022)  can0  18FEE71C   [8]  0F 00 CE FF F0 FF 00 00
 (1745775056.810819)  can0       200   [8]  00 00 02 00 FA 00 64 01
 (1745775056.810820)  can0       180   [8]  F6 DB 00 00 00 00 00 00
 (1745775056.811704)  can0  18FEE61C   [8]  49 00 FF FF 1A FC 00 00
 (1745775056.811705)  can0  18FEE71C   [8]  0F 00 D1 FF F0 FF 00 00
 (1745775056.830884)  can0       200   [8]  00 00 02 00 FA 01 64 01
 (1745775056.830886)  can0       180   [8]  F6 DB 00 00 00 00 00 00
 (1745775056.833130)  can0  18FEE61C   [8]  47 00 FF FF 1C FC 00 00
 (1745775056.833131)  can0  18FEE71C   [8]  10 00 CF FF F2 FF 00 00
 (1745775056.850427)  can0       200   [8]  00 00 02 00 FA 01 64 01
 (1745775056.850428)  can0       180   [8]  F6 DB 00 00 00 01 00 00
 (1745775056.852515)  can0  18FEE61C   [8]  49 00 FF FF 1A FC 00 00
 (1745775056.852516)  can0  18FEE71C   [8]  10 00 D1 FF F3 FF 00 00
 (1745775056.856173)  can0  18FEE81C   [8]  4E 59 B6 5A D8 59 01 00
 (1745775056.856175)  can0  18FEF31C   [8]  29 03 70 4B 7F 8D 50 B2
 (1745775056.856894)  can0  18FEF41C   [8]  64 51 00 00 3E 3B 05 00
 (1745775056.856895)  can0  18FEF61C   [8]  2C 04 10 00 00 00 00 00
 (1745775056.870693)  can0       200   [8]  00 00 02 00 FA 01 64 01
 (1745775056.870695)  can0       180   [8]  F6 DB 00 00 00 01 00 00
 (1745775056.874374)  can0  18FEE61C   [8]  47 00 00 00 1C FC 00 00
 (1745775056.874376)  can0  18FEE71C   [8]  0F 00 CE FF F4 FF 00 00
 (1745775056.890420)  can0       200   [8]  00 00 02 00 FA 01 64 01
 (1745775056.890421)  can0       180   [8]  F6 DB 00 00 00 01 00 00
 (1745775056.893846)  can0  18FEE61C   [8]  49 00 00 00 1A FC 00 00
 (1745775056.893848)  can0  18FEE71C   [8]  10 00 CF FF F5 FF 00 00
 (1745775056.900479)  can0       200   [8]  00 00 02 00 FA 01 64 01
 (1745775056.900480)  can0       180   [8]  F6 DB 00 00 00 01 00 00
 (1745775056.915544)  can0  18FEE61C   [8]  47 00 01 00 1C FC 00 00
 (1745775056.915545)  can0  18FEE71C   [8]  11 00 D2 FF F7 FF 00 00
 (1745775056.920821)  can0       200   [8]  00 00 02 00 FA 01 64 01
 (1745775056.920822)  can0       180   [8]  F6 DB 00 00 00 01 00 00
 (1745775056.934613)  can0  18FEE61C   [8]  49 00 01 00 1A FC 00 00
 (1745775056.934614)  can0  18FEE71C   [8]  10 00 CE FF F6 FF 00 00
 (1745775056.940766)  can0       200   [8]  00 00 02 00 FA 01 64 01
 (1745775056.940767)  can0       180   [8]  F6 DB 00 00 00 01 00 00
 (1745775056.950182)  can0       300   [1]  00
 (1745775056.950183)  can0       280   [8]  00 31 47 02 01 02 00 00
 (1745775056.954281)  can0  18FEE61C   [8]  48 00 02 00 1B FC 00 00
 (1745775056.954282)  can0  18FEE71C   [8]  0F 00 D1 FF F5 FF 00 00
 (1745775056.960080)  can0  18FEE81C   [8]  4D 59 B5 5A D8 59 01 00
 (1745775056.960081)  can0       200   [8]  00 00 02 00 FA 01 64 01
 (1745775056.961412)  can0  18FEF31C   [8]  29 03 70 4B 7F 8D 50 B2
 (1745775056.961414)  can0       180   [8]  F6 DB 00 00 00 01 00 00
 (1745775056.962014)  can0  18FEF41C   [8]  64 51 00 00 3F 3B 05 00
 (1745775056.962015)  can0  18FEF61C   [8]  2C 04 07 00 00 00 00 00
 (1745775056.976065)  can0  18FEE61C   [8]  48 00 02 00 1B FC 00 00
 (1745775056.976067)  can0  18FEE71C   [8]  0E 00 CC FF F2 FF 00 00
 (1745775056.980422)  can0       200   [8]  00 00 02 00 FA 01 64 01
 (1745775056.980423)  can0       180   [8]  F6 DB 00 00 00 01 00 00
 (1745775056.995958)  can0  18FEE61C   [8]  47 00 02 00 1B FC 00 00
 (1745775056.995959)  can0  18FEE71C   [8]  0C 00 CF FF F0 FF 00 00
 (1745775057.000449)  can0       200   [8]  00 00 02 00 FA 01 64 01
 (1745775057.000451)  can0       180   [8]  F6 DB 00 00 00 01 00 00
 (1745775057.017127)  can0  18FEE61C   [8]  47 00 02 00 1C FC 00 00
 (1745775057.017128)  can0  18FEE71C   [8]  0C 00 CD FF EF FF 00 00
 (1745775057.020814)  can0       200   [8]  00 00 02 00 FA 01 64 01
 (1745775057.020815)  can0       180   [8]  F6 DB 00 00 00 01 00 00
 (1745775057.036563)  can0  18FEE61C   [8]  48 00 01 00 1A FC 00 00
 (1745775057.036565)  can0  18FEE71C   [8]  0D 00 D3 FF F0 FF 00 00
 (1745775057.040760)  can0       200   [8]  00 00 02 00 FA 01 64 01
 (1745775057.040761)  can0       180   [8]  F6 DB 00 00 00 01 00 00
 (1745775057.058158)  can0  18FEE61C   [8]  46 00 01 00 1C FC 00 00
 (1745775057.058159)  can0  18FEE71C   [8]  11 00 D3 FF F2 FF 00 00
 (1745775057.060817)  can0       200   [8]  00 00 02 00 FA 01 64 01
 (1745775057.060818)  can0       180   [8]  F6 DB 00 00 00 01 00 00
 (1745775057.064392)  can0  18FEE81C   [8]  4D 59 B4 5A D6 59 01 00
 (1745775057.064393)  can0  18FEF31C   [8]  29 03 70 4B 7F 8D 50 B2
 (1745775057.065126)  can0  18FEF41C   [8]  64 51 00 00 40 3B 05 00
 (1745775057.065128)  can0  18FEF61C   [8]  2C 04 08 00 00 00 00 00
 (1745775057.077840)  can0  18FEE61C   [8]  49 00 00 00 1A FC 00 00
 (1745775057.077841)  can0  18FEE71C   [8]  12 00 D4 FF F1 FF 00 00
 (1745775057.080843)  can0       200   [8]  00 00 02 00 FA 01 64 01
 (1745775057.080844)  can0       180   [8]  F6 DB 00 00 00 01 00 00
 (1745775057.099560)  can0  18FEE61C   [8]  47 00 00 00 1C FC 00 00
 (1745775057.099561)  can0  18FEE71C   [8]  14 00 D2 FF F1 FF 00 00
 (1745775057.100455)  can0       200   [8]  00 00 02 00 FA 01 64 01
 (1745775057.100456)  can0       180   [8]  F6 DB 00 00 00 01 00 00
 (1745775057.118811)  can0  18FEE61C   [8]  49 00 00 00 1A FC 00 00
 (1745775057.118812)  can0  18FEE71C   [8]  13 00 D0 FF F1 FF 00 00
 (1745775057.120304)  can0       200   [8]  00 00 02 00 FA 01 64 01
 (1745775057.120305)  can0       180   [8]  F6 DB 00 00 00 01 00 00
 (1745775057.138830)  can0  18FEE61C   [8]  47 00 00 00 1C FC 00 00
 (1745775057.138831)  can0  18FEE71C   [8]  11 00 D2 FF EF FF 00 00
 (1745775057.140744)  can0       200   [8]  00 00 02 00 FA 01 64 01
 (1745775057.140745)  can0       180   [8]  F7 DB 00 00 00 09 00 00
 (1745775057.150455)  can0       200   [8]  00 00 02 00 FA 01 64 01
 (1745775057.150457)  can0       180   [8]  F7 DB 00 00 00 09 00 00
 (1745775057.160578)  can0  18FEE61C   [8]  48 00 00 00 1A FC 00 00
 (1745775057.160579)  can0  18FEE71C   [8]  10 00 CE FF EE FF 00 00
 (1745775057.168702)  can0  18FEE81C   [8]  4D 59 B4 5A D7 59 01 00
 (1745775057.168704)  can0  18FEF31C   [8]  29 03 70 4B 7F 8D 50 B2
 (1745775057.170012)  can0  18FEF41C   [8]  64 51 00 00 40 3B 05 00
 (1745775057.170013)  can0  18FEF61C   [8]  2C 04 09 00 00 00 00 00
 (1745775057.180514)  can0  18FEE61C   [8]  47 00 00 00 1A FC 00 00
 (1745775057.180515)  can0       200   [8]  00 00 02 00 FA 01 64 01
 (1745775057.181123)  can0  18FEE71C   [8]  12 00 D1 FF EF FF 00 00
 (1745775057.181124)  can0       180   [8]  F7 DB 00 00 00 01 00 00
 (1745775057.181124)  can0       180   [8]  F7 DB 00 00 00 01 00 00
 (1745775057.190951)  can0       200   [8]  00 00 02 00 FA 01 64 01
 (1745775057.190953)  can0       180   [8]  F7 DB 00 00 00 01 00 00
 (1745775057.199452)  can0  18FEE61C   [8]  49 00 00 00 1A FC 00 00
 (1745775057.199454)  can0  18FEE71C   [8]  13 00 CD FF EF FF 00 00
 (1745775057.210256)  can0       200   [8]  00 00 02 00 FA 01 64 01
 (1745775057.210257)  can0       180   [8]  F7 DB 00 00 00 01 00 00
 (1745775057.221175)  can0  18FEE61C   [8]  47 00 FF FF 1A FC 00 00
 (1745775057.221176)  can0  18FEE71C   [8]  14 00 D0 FF F0 FF 00 00
 (1745775057.230312)  can0       200   [8]  00 00 02 00 FA 01 64 01
 (1745775057.230314)  can0       180   [8]  F7 DB 00 00 00 01 00 00
 (1745775057.242653)  can0  18FEE61C   [8]  46 00 FE FF 1B FC 00 00
 (1745775057.242654)  can0  18FEE71C   [8]  13 00 CC FF EF FF 00 00
 (1745775057.250480)  can0       200   [8]  00 00 02 00 FA 01 64 01
 (1745775057.250481)  can0       180   [8]  F7 DB 00 00 00 01 00 00
 (1745775057.264625)  can0  18FEE61C   [8]  49 00 FE FF 1A FC 00 00
 (1745775057.264626)  can0  18FEE71C   [8]  10 00 CF FF EE FF 00 00
 (1745775057.270354)  can0       200   [8]  00 00 02 00 FA 01 64 01
 (1745775057.270355)  can0       180   [8]  F7 DB 00 00 00 01 00 00
 (1745775057.273844)  can0  18FEE81C   [8]  4D 59 B3 5A D7 59 01 00
 (1745775057.273845)  can0  18FEF31C   [8]  29 03 70 4B 7F 8D 50 B2
 (1745775057.274583)  can0  18FEF41C   [8]  64 51 00 00 42 3B 05 00
 (1745775057.274584)  can0  18FEF61C   [8]  2C 04 0A 00 00 00 00 00
 (1745775057.284488)  can0  18FEE61C   [8]  47 00 FE FF 1C FC 00 00
 (1745775057.284490)  can0  18FEE71C   [8]  0F 00 CD FF EE FF 00 00
 (1745775057.290924)  can0       200   [8]  00 00 02 00 FA 01 64 01
 (1745775057.290925)  can0       180   [8]  F7 DB 00 00 00 01 00 00
 (1745775057.306305)  can0  18FEE61C   [8]  4A 00 FE FF 1A FC 00 00
 (1745775057.306306)  can0  18FEE71C   [8]  0E 00 CE FF EF FF 00 00
 (1745775057.310315)  can0       200   [8]  00 00 02 00 FA 01 64 01
 (1745775057.310316)  can0       180   [8]  F7 DB 00 00 00 01 00 00
 (1745775057.325688)  can0  18FEE61C   [8]  48 00 FE FF 1C FC 00 00
 (1745775057.325689)  can0  18FEE71C   [8]  0C 00 CD FF EF FF 00 00
 (1745775057.330391)  can0       200   [8]  00 00 02 00 FA 01 64 01
 (1745775057.330392)  can0       180   [8]  F7 DB 00 00 00 01 00 00
 (1745775057.347524)  can0  18FEE61C   [8]  49 00 FF FF 1B FC 00 00
 (1745775057.347525)  can0  18FEE71C   [8]  0A 00 CA FF EF FF 00 00
 (1745775057.350383)  can0       200   [8]  00 00 02 00 FA 01 64 01
 (1745775057.350384)  can0       300   [1]  00
 (1745775057.350386)  can0       180   [8]  F7 DB 00 00 00 01 00 00
 (1745775057.351599)  can0       280   [8]  00 31 47 02 01 02 00 00
 (1745775057.360826)  can0       200   [8]  00 00 02 00 FA 01 64 01
 (1745775057.360827)  can0       180   [8]  F7 DB 00 00 00 01 00 00
 (1745775057.366620)  can0  18FEE61C   [8]  47 00 FF FF 1C FC 00 00
 (1745775057.366621)  can0  18FEE71C   [8]  0A 00 CE FF F0 FF 00 00
 (1745775057.377897)  can0  18FEE81C   [8]  4E 59 B2 5A D8 59 00 00
 (1745775057.377898)  can0  18FEF31C   [8]  29 03 70 4B 7F 8D 50 B2
 (1745775057.379462)  can0  18FEF41C   [8]  64 51 00 00 43 3B 05 00
 (1745775057.379463)  can0  18FEF61C   [8]  2C 04 0B 00 00 00 00 00
 (1745775057.380392)  can0       200   [8]  00 00 02 00 FA 01 64 01
 (1745775057.380393)  can0       180   [8]  F7 DB 00 00 00 01 00 00
 (1745775057.386870)  can0  18FEE61C   [8]  48 00 FF FF 1B FC 00 00
 (1745775057.386871)  can0  18FEE71C   [8]  0A 00 CE FF F0 FF 00 00
 (1745775057.400414)  can0       200   [8]  00 00 02 00 FA 01 64 01
 (1745775057.400415)  can0       180   [8]  F7 DB 00 00 00 01 00 00
 (1745775057.406568)  can0  18FEE61C   [8]  47 00 00 00 1B FC 00 00
 (1745775057.406569)  can0  18FEE71C   [8]  0A 00 D4 FF F0 FF 00 00
 (1745775057.420318)  can0       200   [8]  00 00 02 00 FA 01 64 01
 (1745775057.420319)  can0       180   [8]  F7 DB 00 00 00 01 00 00
 (1745775057.427866)  can0  18FEE61C   [8]  47 00 00 00 1B FC 00 00
 (1745775057.427867)  can0  18FEE71C   [8]  0B 00 D1 FF F2 FF 00 00
 (1745775057.440751)  can0       200   [8]  00 00 02 00 FA 01 64 01
 (1745775057.440752)  can0       180   [8]  F7 DB 00 00 00 01 00 00
 (1745775057.449752)  can0  18FEE61C   [8]  49 00 00 00 19 FC 00 00
 (1745775057.449753)  can0  18FEE71C   [8]  0C 00 D4 FF F3 FF 00 00
 (1745775057.460797)  can0       200   [8]  00 00 02 00 FA 01 64 01
 (1745775057.460798)  can0       180   [8]  F7 DB 00 00 00 01 00 00
 (1745775057.469324)  can0  18FEE61C   [8]  47 00 00 00 1B FC 00 00
 (1745775057.469325)  can0  18FEE71C   [8]  0B 00 D0 FF F2 FF 00 00
 (1745775057.480365)  can0       200   [8]  00 00 02 00 FA 01 64 01
 (1745775057.480366)  can0       180   [8]  F7 DB 00 00 00 01 00 00
 (1745775057.482051)  can0  18FEE81C   [8]  4E 59 B1 5A D8 59 01 00
 (1745775057.482052)  can0  18FEF31C   [8]  29 03 70 4B 7F 8D 50 B2
 (1745775057.483194)  can0  18FEF41C   [8]  64 51 00 00 44 3B 05 00
 (1745775057.483195)  can0  18FEF61C   [8]  2C 04 0C 00 00 00 00 00
 (1745775057.489784)  can0  18FEE61C   [8]  49 00 00 00 19 FC 00 00
 (1745775057.489785)  can0  18FEE71C   [8]  0A 00 D0 FF F1 FF 00 00
 (1745775057.500295)  can0       200   [8]  00 00 02 00 FA 01 64 01
 (1745775057.500295)  can0       180   [8]  F7 DB 00 00 00 01 00 00
 (1745775057.510919)  can0  18FEE61C   [8]  45 00 01 00 1C FC 00 00
 (1745775057.510919)  can0  18FEE71C   [8]  0A 00 CE FF F1 FF 00 00
 (1745775057.520416)  can0       200   [8]  00 00 02 00 FA 01 64 01
 (1745775057.520417)  can0       180   [8]  F7 DB 00 00 00 01 00 00
 (1745775057.530335)  can0  18FEE61C   [8]  47 00 01 00 1A FC 00 00
 (1745775057.530336)  can0  18FEE71C   [8]  0A 00 CE FF F1 FF 00 00
 (1745775057.540735)  can0       200   [8]  00 00 02 00 FA 01 64 01
 (1745775057.540736)  can0       180   [8]  F7 DB 00 00 00 01 00 00
 (1745775057.550508)  can0       200   [8]  00 00 02 00 FA 01 64 01
 (1745775057.550509)  can0       180   [8]  F7 DB 00 00 00 01 00 00
 (1745775057.552166)  can0  18FEE61C   [8]  46 00 02 00 1B FC 00 00
 (1745775057.552167)  can0  18FEE71C   [8]  0C 00 CF FF F1 FF 00 00
 (1745775057.572519)  can0  18FEE61C   [8]  4A 00 02 00 1A FC 00 00
 (1745775057.572520)  can0  18FEE71C   [8]  0E 00 CC FF F0 FF 00 00
 (1745775057.580262)  can0       200   [8]  00 00 02 00 FA 01 64 01
 (1745775057.580263)  can0       180   [8]  F7 DB 00 00 00 01 00 00
 (1745775057.587354)  can0  18FEE81C   [8]  4D 59 B0 5A D7 59 00 00
 (1745775057.587355)  can0  18FEF31C   [8]  29 03 70 4B 7F 8D 50 B2
 (1745775057.588111)  can0  18FEF41C   [8]  64 51 00 00 45 3B 05 00
 (1745775057.588113)  can0  18FEF61C   [8]  2C 04 0D 00 00 00 00 00
 (1745775057.591026)  can0       200   [8]  00 00 02 00 FA 01 64 01
 (1745775057.591028)  can0       180   [8]  F7 DB 00 00 00 01 00 00
 (1745775057.592314)  can0  18FEE61C   [8]  48 00 02 00 1B FC 00 00
 (1745775057.592315)  can0  18FEE71C   [8]  10 00 CE FF F0 FF 00 00
 (1745775057.610799)  can0       200   [8]  00 00 02 00 FA 01 64 01
 (1745775057.610801)  can0       180   [8]  F7 DB 00 00 00 01 00 00
 (1745775057.611513)  can0  18FEE61C   [8]  48 00 02 00 1B FC 00 00
 (1745775057.611514)  can0  18FEE71C   [8]  12 00 CC FF F1 FF 00 00
 (1745775057.630343)  can0       200   [8]  00 00 02 00 FA 01 64 01
 (1745775057.630344)  can0       180   [8]  F7 DB 00 00 00 01 00 00
 (1745775057.632707)  can0  18FEE61C   [8]  46 00 02 00 1B FC 00 00
 (1745775057.632708)  can0  18FEE71C   [8]  13 00 D0 FF F2 FF 00 00
 (1745775057.650367)  can0       200   [8]  00 00 02 00 FA 01 64 01
 (1745775057.650368)  can0       180   [8]  F7 DB 00 00 00 01 00 00
 (1745775057.654192)  can0  18FEE61C   [8]  46 00 01 00 1C FC 00 00
 (1745775057.654193)  can0  18FEE71C   [8]  13 00 CC FF F1 FF 00 00
 (1745775057.670335)  can0       200   [8]  00 00 02 00 FA 01 64 01
 (1745775057.670337)  can0       180   [8]  F7 DB 00 00 00 01 00 00
 (1745775057.675994)  can0  18FEE61C   [8]  48 00 01 00 1A FC 00 00
 (1745775057.675995)  can0  18FEE71C   [8]  12 00 D0 FF F1 FF 00 00
 (1745775057.690926)  can0       200   [8]  00 00 02 00 FA 01 64 01
 (1745775057.690927)  can0       180   [8]  F7 DB 00 00 00 01 00 00
 (1745775057.691773)  can0  18FEE81C   [8]  4D 59 AF 5A D6 59 01 00
 (1745775057.691775)  can0       180   [8]  F7 DB 00 00 00 01 00 00
 (1745775057.693073)  can0  18FEF31C   [8]  29 03 70 4B 7F 8D 50 B2
 (1745775057.693073)  can0  18FEF41C   [8]  64 51 00 00 45 3B 05 00
 (1745775057.694039)  can0  18FEF61C   [8]  2C 04 04 00 00 00 00 00
 (1745775057.696953)  can0  18FEE61C   [8]  47 00 01 00 1C FC 00 00
 (1745775057.696954)  can0  18FEE71C   [8]  12 00 CD FF F0 FF 00 00
 (1745775057.710343)  can0       200   [8]  00 00 02 00 FA 01 64 01
 (1745775057.710344)  can0       180   [8]  F7 DB 00 00 00 01 00 00
 (1745775057.716556)  can0  18FEE61C   [8]  4A 00 01 00 19 FC 00 00
 (1745775057.716558)  can0  18FEE71C   [8]  11 00 CC FF EF FF 00 00
 (1745775057.730449)  can0       200   [8]  00 00 02 00 FA 01 64 01
 (1745775057.730450)  can0       180   [8]  F7 DB 00 00 00 01 00 00
 (1745775057.738141)  can0  18FEE61C   [8]  47 00 01 00 1B FC 00 00
 (1745775057.738142)  can0  18FEE71C   [8]  11 00 CC FF F0 FF 00 00
 (1745775057.750433)  can0       200   [8]  00 00 02 00 FA 01 64 01
 (1745775057.750434)  can0       300   [1]  00
 (1745775057.750434)  can0       280   [8]  00 31 47 02 01 02 00 00
 (1745775057.751652)  can0       180   [8]  F7 DB 00 00 00 01 00 00
 (1745775057.757876)  can0  18FEE61C   [8]  48 00 00 00 1A FC 00 00
 (1745775057.757877)  can0  18FEE71C   [8]  12 00 CA FF F1 FF 00 00
 (1745775057.760871)  can0       200   [8]  00 00 02 00 FA 01 64 01
 (1745775057.760873)  can0       180   [8]  F7 DB 00 00 00 01 00 00
 (1745775057.779367)  can0  18FEE61C   [8]  46 00 00 00 1B FC 00 00
 (1745775057.779368)  can0  18FEE71C   [8]  12 00 CC FF F2 FF 00 00
 (1745775057.780785)  can0       200   [8]  00 00 02 00 FA 01 64 01
 (1745775057.780787)  can0       180   [8]  F7 DB 00 00 00 01 00 00
 (1745775057.796833)  can0  18FEE81C   [8]  4E 59 AE 5A D6 59 01 00
 (1745775057.796834)  can0  18FEF31C   [8]  29 03 70 4B 7F 8D 50 B2
 (1745775057.797545)  can0  18FEF41C   [8]  64 51 00 00 47 3B 05 00
 (1745775057.797546)  can0  18FEF61C   [8]  2C 04 05 00 00 00 00 00
 (1745775057.799068)  can0  18FEE61C   [8]  48 00 00 00 1A FC 00 00
 (1745775057.799069)  can0  18FEE71C   [8]  12 00 CA FF F2 FF 00 00
 (1745775057.800524)  can0       200   [8]  00 00 02 00 FA 01 64 01
 (1745775057.800525)  can0       180   [8]  F7 DB 00 00 00 01 00 00
 (1745775057.818631)  can0  18FEE61C   [8]  48 00 FF FF 1B FC 00 00
 (1745775057.818634)  can0  18FEE71C   [8]  13 00 CE FF F3 FF 00 00
 (1745775057.820410)  can0       200   [8]  00 00 02 00 FA 01 64 01
 (1745775057.820412)  can0       180   [8]  F7 DB 00 00 00 01 00 00
 (1745775057.840482)  can0  18FEE61C   [8]  49 00 FE FF 1B FC 00 00
 (1745775057.840484)  can0       200   [8]  00 00 02 00 FA 01 64 01
 (1745775057.841073)  can0  18FEE71C   [8]  16 00 CB FF F3 FF 00 00
 (1745775057.841074)  can0       180   [8]  F7 DB 00 00 00 01 00 00
 (1745775057.860279)  can0  18FEE61C   [8]  4A 00 FE FF 19 FC 00 00
 (1745775057.860280)  can0  18FEE71C   [8]  16 00 CE FF F2 FF 00 00
 (1745775057.860913)  can0       200   [8]  00 00 02 00 FA 01 64 01
 (1745775057.860914)  can0       180   [8]  F7 DB 00 00 00 01 00 00
 (1745775057.879682)  can0  18FEE61C   [8]  49 00 FE FF 1A FC 00 00
 (1745775057.879683)  can0  18FEE71C   [8]  12 00 C6 FF F1 FF 00 00
 (1745775057.880480)  can0       200   [8]  00 00 02 00 FA 01 64 01
 (1745775057.880482)  can0       180   [8]  F7 DB 00 00 00 01 00 00
 (1745775057.900404)  can0       200   [8]  00 00 02 00 FA 01 64 01
 (1745775057.900406)  can0  18FEE81C   [8]  4D 59 AD 5A D7 59 01 00
 (1745775057.901455)  can0       180   [8]  F7 DB 00 00 00 01 00 00
 (1745775057.901456)  can0  18FEF31C   [8]  29 03 70 4B 7F 8D 50 B2
 (1745775057.902525)  can0  18FEF41C   [8]  64 51 00 00 48 3B 05 00
 (1745775057.902526)  can0  18FEF61C   [8]  2C 04 06 00 00 00 00 00
 (1745775057.903741)  can0  18FEE61C   [8]  45 00 FE FF 19 FC 00 00
 (1745775057.903742)  can0  18FEE71C   [8]  0F 00 C4 FF F0 FF 00 00
 (1745775057.920851)  can0       200   [8]  00 00 02 00 FA 01 64 01
 (1745775057.920852)  can0  18FEE61C   [8]  3E 00 FE FF 1C FC 00 00
 (1745775057.921343)  can0       180   [8]  F7 DB 00 00 00 01 00 00
 (1745775057.921344)  can0  18FEE71C   [8]  0F 00 C2 FF F1 FF 00 00
 (1745775057.940773)  can0       200   [8]  00 00 02 00 FA 01 64 01
 (1745775057.940775)  can0       180   [8]  F7 DB 00 00 00 01 00 00
 (1745775057.942543)  can0  18FEE61C   [8]  3E 00 FE FF 19 FC 00 00
 (1745775057.942544)  can0  18FEE71C   [8]  0E 00 C9 FF EF FF 00 00
 (1745775057.960791)  can0       200   [8]  00 00 02 00 FA 01 64 01
 (1745775057.960793)  can0       180   [8]  F7 DB 00 00 00 01 00 00
 (1745775057.961570)  can0       180   [8]  F7 DB 00 00 00 01 00 00
 (1745775057.961571)  can0  18FEE61C   [8]  3D 00 FD FF 1B FC 00 00
 (1745775057.962984)  can0  18FEE71C   [8]  0D 00 CD FF EF FF 00 00
 (1745775057.980214)  can0       200   [8]  00 00 02 00 FA 01 64 01
 (1745775057.980215)  can0       180   [8]  F7 DB 00 00 00 01 00 00
 (1745775057.984025)  can0  18FEE61C   [8]  42 00 FD FF 18 FC 00 00
 (1745775057.984026)  can0  18FEE71C   [8]  0C 00 CD FF F0 FF 00 00
 (1745775057.990418)  can0       200   [8]  00 00 02 00 FA 01 64 01
 (1745775057.990419)  can0       180   [8]  F7 DB 00 00 00 01 00 00
 (1745775058.004136)  can0  18FEE61C   [8]  42 00 FE FF 1A FC 00 00
 (1745775058.004137)  can0  18FEE71C   [8]  0D 00 CF FF F2 FF 00 00
 (1745775058.006120)  can0  18FEE81C   [8]  4E 59 A8 5A D8 59 01 00
 (1745775058.006121)  can0  18FEF31C   [8]  29 03 70 4B 7F 8D 50 B2
 (1745775058.006863)  can0  18FEF41C   [8]  64 51 00 00 49 3B 05 00
 (1745775058.006864)  can0  18FEF61C   [8]  2C 04 07 00 00 00 00 00
 (1745775058.010333)  can0       200   [8]  00 00 02 00 FA 01 64 01
 (1745775058.010334)  can0       180   [8]  F7 DB 00 00 00 01 00 00
 (1745775058.023700)  can0  18FEE61C   [8]  44 00 FF FF 1A FC 00 00
 (1745775058.023702)  can0  18FEE71C   [8]  0C 00 CC FF F2 FF 00 00
 (1745775058.030408)  can0       200   [8]  00 00 02 00 FA 01 64 01
 (1745775058.030409)  can0       180   [8]  F7 DB 00 00 00 01 00 00
 (1745775058.044771)  can0  18FEE61C   [8]  42 00 00 00 1C FC 00 00
 (1745775058.044772)  can0  18FEE71C   [8]  0D 00 D2 FF F1 FF 00 00
 (1745775058.050461)  can0       200   [8]  00 00 02 00 FA 01 64 01
 (1745775058.050463)  can0       180   [8]  F7 DB 00 00 00 01 00 00
 (1745775058.065207)  can0  18FEE61C   [8]  45 00 00 00 1C FC 00 00
 (1745775058.065208)  can0  18FEE71C   [8]  0C 00 D1 FF F1 FF 00 00
 (1745775058.070385)  can0       200   [8]  00 00 02 00 FA 01 64 01
 (1745775058.070386)  can0       180   [8]  F7 DB 00 00 00 01 00 00
 (1745775058.084352)  can0  18FEE61C   [8]  47 00 01 00 1C FC 00 00
 (1745775058.084354)  can0  18FEE71C   [8]  0B 00 D5 FF F0 FF 00 00
 (1745775058.090999)  can0       200   [8]  00 00 02 00 FA 01 64 01
 (1745775058.091000)  can0       180   [8]  F7 DB 00 00 00 01 00 00
 (1745775058.091775)  can0       180   [8]  F7 DB 00 00 00 01 00 00
 (1745775058.106175)  can0  18FEE61C   [8]  4C 00 01 00 1B FC 00 00
 (1745775058.106176)  can0  18FEE71C   [8]  0B 00 CD FF F0 FF 00 00
 (1745775058.110276)  can0  18FEE81C   [8]  4D 59 A6 5A D8 59 01 00
 (1745775058.110277)  can0       200   [8]  00 00 02 00 FA 01 64 01
 (1745775058.111818)  can0  18FEF31C   [8]  29 03 70 4B 7F 8D 50 B2
 (1745775058.111819)  can0       180   [8]  F7 DB 00 00 00 01 00 00
 (1745775058.112511)  can0  18FEF41C   [8]  64 51 00 00 4A 3B 05 00
 (1745775058.112512)  can0  18FEF61C   [8]  2C 04 08 00 00 00 00 00
 (1745775058.125558)  can0  18FEE61C   [8]  4F 00 01 00 1A FC 00 00
 (1745775058.125560)  can0  18FEE71C   [8]  0B 00 CD FF F0 FF 00 00
 (1745775058.130419)  can0       200   [8]  00 00 02 00 FA 01 64 01
 (1745775058.130420)  can0       180   [8]  F7 DB 00 00 00 01 00 00
 (1745775058.147084)  can0  18FEE61C   [8]  4C 00 02 00 1B FC 00 00
 (1745775058.147085)  can0  18FEE71C   [8]  0B 00 C3 FF F1 FF 00 00
 (1745775058.150909)  can0       200   [8]  00 00 02 00 FA 01 64 01
 (1745775058.150911)  can0       300   [1]  00
 (1745775058.150912)  can0       180   [8]  F7 DB 00 00 00 01 00 00
 (1745775058.151805)  can0       280   [8]  00 31 47 02 01 02 00 00
 (1745775058.168204)  can0  18FEE61C   [8]  4B 00 02 00 19 FC 00 00
 (1745775058.168205)  can0  18FEE71C   [8]  0A 00 C2 FF F0 FF 00 00
 (1745775058.170770)  can0       200   [8]  00 00 02 00 FA 01 64 01
 (1745775058.170772)  can0       180   [8]  F7 DB 00 00 00 01 00 00
 (1745775058.190045)  can0  18FEE61C   [8]  45 00 01 00 1C FC 00 00
 (1745775058.190046)  can0  18FEE71C   [8]  0D 00 C2 FF F2 FF 00 00
 (1745775058.190735)  can0       200   [8]  00 00 02 00 FA 01 64 01
 (1745775058.190736)  can0       180   [8]  F7 DB 00 00 00 01 00 00
 (1745775058.200315)  can0       200   [8]  00 00 02 00 FA 01 64 01
 (1745775058.200317)  can0       180   [8]  F7 DB 00 00 00 01 00 00
 (1745775058.211244)  can0  18FEE61C   [8]  46 00 01 00 19 FC 00 00
 (1745775058.211245)  can0  18FEE71C   [8]  10 00 C7 FF F5 FF 00 00
 (1745775058.214495)  can0  18FEE81C   [8]  4D 59 A6 5A D7 59 01 00
 (1745775058.214496)  can0  18FEF31C   [8]  29 03 70 4B 7F 8D 50 B2
 (1745775058.215734)  can0  18FEF41C   [8]  64 51 00 00 4A 3B 05 00
 (1745775058.215735)  can0  18FEF61C   [8]  2C 04 09 00 00 00 00 00
 (1745775058.220435)  can0       200   [8]  00 00 02 00 FA 01 64 01
 (1745775058.220436)  can0       180   [8]  F7 DB 00 00 00 01 00 00
 (1745775058.231173)  can0  18FEE61C   [8]  44 00 01 00 1B FC 00 00
 (1745775058.231174)  can0  18FEE71C   [8]  11 00 CB FF F6 FF 00 00
 (1745775058.240414)  can0       200   [8]  00 00 02 00 FA 01 64 01
 (1745775058.240415)  can0       180   [8]  F7 DB 00 00 00 01 00 00
 (1745775058.250186)  can0  18FEE61C   [8]  47 00 01 00 19 FC 00 00
 (1745775058.250187)  can0  18FEE71C   [8]  11 00 CA FF F5 FF 00 00
 (1745775058.270831)  can0       200   [8]  00 00 02 00 FA 01 64 01
 (1745775058.270832)  can0       180   [8]  F7 DB 00 00 00 01 00 00
 (1745775058.272369)  can0  18FEE61C   [8]  43 00 01 00 1B FC 00 00
 (1745775058.272370)  can0  18FEE71C   [8]  12 00 CD FF F5 FF 00 00
 (1745775058.280813)  can0       200   [8]  00 00 02 00 FA 01 64 01
 (1745775058.280814)  can0       180   [8]  F7 DB 00 00 00 01 00 00
 (1745775058.291870)  can0  18FEE61C   [8]  43 00 01 00 1B FC 00 00
 (1745775058.291872)  can0  18FEE71C   [8]  13 00 CC FF F4 FF 00 00
 (1745775058.300836)  can0       200   [8]  00 00 02 00 FA 01 64 01
 (1745775058.300838)  can0       180   [8]  F7 DB 00 00 00 01 00 00
 (1745775058.313364)  can0  18FEE61C   [8]  42 00 01 00 1C FC 00 00
 (1745775058.313365)  can0  18FEE71C   [8]  13 00 D4 FF F3 FF 00 00
 (1745775058.319832)  can0  18FEE81C   [8]  4D 59 A4 5A D6 59 01 00
 (1745775058.319833)  can0  18FEF31C   [8]  29 03 70 4B 7F 8D 50 B2
 (1745775058.320505)  can0       200   [8]  00 00 02 00 FA 01 64 01
 (1745775058.320507)  can0  18FEF41C   [8]  64 51 00 00 4C 3B 05 00
 (1745775058.321863)  can0       180   [8]  F7 DB 00 00 00 01 00 00
 (1745775058.321864)  can0  18FEF61C   [8]  2C 04 0A 00 00 00 00 00
 (1745775058.332977)  can0  18FEE61C   [8]  44 00 00 00 1D FC 00 00
 (1745775058.332978)  can0  18FEE71C   [8]  14 00 D4 FF F3 FF 00 00
 (1745775058.340826)  can0       200   [8]  00 00 02 00 FA 01 64 01
 (1745775058.340828)  can0       180   [8]  F7 DB 00 00 00 01 00 00
 (1745775058.354481)  can0  18FEE61C   [8]  48 00 00 00 1B FC 00 00
 (1745775058.354482)  can0  18FEE71C   [8]  14 00 D8 FF F2 FF 00 00
 (1745775058.360331)  can0       200   [8]  00 00 02 00 FA 01 64 01
 (1745775058.360333)  can0       180   [8]  F7 DB 00 00 00 01 00 00
 (1745775058.374428)  can0  18FEE61C   [8]  4A 00 00 00 1C FC 00 00
 (1745775058.374430)  can0  18FEE71C   [8]  14 00 D1 FF F2 FF 00 00
 (1745775058.380737)  can0       200   [8]  00 00 02 00 FA 01 64 01
 (1745775058.380739)  can0       180   [8]  F7 DB 00 00 00 01 00 00
 (1745775058.393945)  can0  18FEE61C   [8]  4C 00 FF FF 1A FC 00 00
 (1745775058.393946)  can0  18FEE71C   [8]  12 00 D2 FF F1 FF 00 00
 (1745775058.400716)  can0       200   [8]  00 00 02 00 FA 01 64 01
 (1745775058.400718)  can0       180   [8]  F7 DB 00 00 00 01 00 00
 (1745775058.410802)  can0       200   [8]  00 00 02 00 FA 01 64 01
 (1745775058.410803)  can0       180   [8]  F7 DB 00 00 00 01 00 00
 (1745775058.415392)  can0  18FEE61C   [8]  49 00 FF FF 1C FC 00 00
 (1745775058.415393)  can0  18FEE71C   [8]  10 00 CB FF F0 FF 00 00
 (1745775058.424069)  can0  18FEE81C   [8]  4D 59 A4 5A D7 59 01 00
 (1745775058.424071)  can0  18FEF31C   [8]  29 03 70 4B 7F 8D 50 B2
 (1745775058.424820)  can0  18FEF41C   [8]  64 51 00 00 4D 3B 05 00
 (1745775058.424821)  can0  18FEF61C   [8]  2C 04 0B 00 00 00 00 00
 (1745775058.430954)  can0       200   [8]  00 00 02 00 FA 01 64 01
 (1745775058.430955)  can0       180   [8]  F7 DB 00 00 00 01 00 00
 (1745775058.435042)  can0  18FEE61C   [8]  4A 00 FF FF 19 FC 00 00
 (1745775058.435045)  can0  18FEE71C   [8]  10 00 CB FF EF FF 00 00
 (1745775058.450289)  can0       200   [8]  00 00 02 00 FA 01 64 01
 (1745775058.450291)  can0       180   [8]  F7 DB 00 00 00 01 00 00
 (1745775058.456444)  can0  18FEE61C   [8]  48 00 FF FF 1C FC 00 00
 (1745775058.456445)  can0  18FEE71C   [8]  0F 00 C9 FF EF FF 00 00
 (1745775058.470336)  can0       200   [8]  00 00 02 00 FA 01 64 01
 (1745775058.470338)  can0       180   [8]  F7 DB 00 00 00 01 00 00
 (1745775058.475946)  can0  18FEE61C   [8]  4B 00 FF FF 19 FC 00 00
 (1745775058.475947)  can0  18FEE71C   [8]  0F 00 C9 FF EF FF 00 00
 (1745775058.490413)  can0       200   [8]  00 00 02 00 FA 01 64 01
 (1745775058.490414)  can0       180   [8]  F7 DB 00 00 00 01 00 00
 (1745775058.496967)  can0  18FEE61C   [8]  48 00 FF FF 1B FC 00 00
 (1745775058.496968)  can0  18FEE71C   [8]  0E 00 C8 FF F0 FF 00 00
 (1745775058.510326)  can0       200   [8]  00 00 02 00 FA 01 64 01
 (1745775058.510327)  can0       180   [8]  F7 DB 00 00 00 01 00 00
 (1745775058.516737)  can0  18FEE61C   [8]  4A 00 FF FF 19 FC 00 00
 (1745775058.516738)  can0  18FEE71C   [8]  0F 00 C6 FF F1 FF 00 00
 (1745775058.528386)  can0  18FEE81C   [8]  4D 59 A4 5A D8 59 01 00
 (1745775058.528388)  can0  18FEF31C   [8]  29 03 70 4B 7F 8D 50 B2
 (1745775058.529142)  can0  18FEF41C   [8]  64 51 00 00 4E 3B 05 00
 (1745775058.529143)  can0  18FEF61C   [8]  2C 04 0C 00 00 00 00 00
 (1745775058.530640)  can0       200   [8]  00 00 02 00 FA 01 64 01
 (1745775058.530641)  can0       180   [8]  F7 DB 00 00 00 01 00 00
 (1745775058.538209)  can0  18FEE61C   [8]  45 00 FF FF 1B FC 00 00
 (1745775058.538211)  can0  18FEE71C   [8]  0D 00 C9 FF F2 FF 00 00
 (1745775058.550886)  can0       200   [8]  00 00 02 00 FA 01 64 01
 (1745775058.550887)  can0       300   [1]  00
 (1745775058.550887)  can0       180   [8]  F7 DB 00 00 00 01 00 00
 (1745775058.551818)  can0       280   [8]  00 31 47 02 01 02 00 00
 (1745775058.557409)  can0  18FEE61C   [8]  44 00 FF FF 1B FC 00 00
 (1745775058.557411)  can0  18FEE71C   [8]  0C 00 C7 FF F0 FF 00 00
 (1745775058.570412)  can0       200   [8]  00 00 02 00 FA 01 64 01
 (1745775058.570413)  can0       180   [8]  F7 DB 00 00 00 01 00 00
 (1745775058.578847)  can0  18FEE61C   [8]  42 00 00 00 1B FC 00 00
 (1745775058.578848)  can0  18FEE71C   [8]  0B 00 CC FF F0 FF 00 00
 (1745775058.590868)  can0       200   [8]  00 00 02 00 FA 01 64 01
 (1745775058.590869)  can0       180   [8]  F7 DB 00 00 00 01 00 00
 (1745775058.598618)  can0  18FEE61C   [8]  43 00 00 00 1C FC 00 00
 (1745775058.598619)  can0  18FEE71C   [8]  0A 00 CA FF EF FF 00 00
 (1745775058.610692)  can0       200   [8]  00 00 02 00 FA 01 64 01
 (1745775058.610693)  can0       180   [8]  F7 DB 00 00 00 01 00 00
 (1745775058.619841)  can0  18FEE61C   [8]  44 00 00 00 1A FC 00 00
 (1745775058.619843)  can0  18FEE71C   [8]  0A 00 D0 FF EF FF 00 00
 (1745775058.620733)  can0       200   [8]  00 00 02 00 FA 01 64 01
 (1745775058.620734)  can0       180   [8]  F7 DB 00 00 00 01 00 00
 (1745775058.633238)  can0  18FEE81C   [8]  4D 59 A1 5A D8 59 01 00
 (1745775058.633239)  can0  18FEF31C   [8]  29 03 70 4B 7F 8D 50 B2
 (1745775058.633959)  can0  18FEF41C   [8]  64 51 00 00 4F 3B 05 00
 (1745775058.633961)  can0  18FEF61C   [8]  2C 04 0D 00 00 00 00 00
 (1745775058.639853)  can0  18FEE61C   [8]  44 00 00 00 1C FC 00 00
 (1745775058.639854)  can0  18FEE71C   [8]  0C 00 CD FF F0 FF 00 00
 (1745775058.640542)  can0       200   [8]  00 00 02 00 FA 01 64 01
 (1745775058.640543)  can0       180   [8]  F7 DB 00 00 00 01 00 00
 (1745775058.660792)  can0       200   [8]  00 00 02 00 FA 01 64 01
 (1745775058.660794)  can0       180   [8]  F7 DB 00 00 00 01 00 00
 (1745775058.661513)  can0  18FEE61C   [8]  46 00 00 00 1A FC 00 00
 (1745775058.661514)  can0  18FEE71C   [8]  0E 00 D0 FF F1 FF 00 00
 (1745775058.680224)  can0       200   [8]  00 00 02 00 FA 01 64 01
 (1745775058.680225)  can0  18FEE61C   [8]  43 00 00 00 1C FC 00 00
 (1745775058.681405)  can0       180   [8]  F7 DB 00 00 00 01 00 00
 (1745775058.681407)  can0  18FEE71C   [8]  0D 00 CD FF F2 FF 00 00
 (1745775058.700262)  can0       200   [8]  00 00 02 00 FA 01 64 01
 (1745775058.700263)  can0       180   [8]  F7 DB 00 00 00 01 00 00
 (1745775058.702002)  can0  18FEE61C   [8]  45 00 00 00 1A FC 00 00
 (1745775058.702003)  can0  18FEE71C   [8]  0C 00 CF FF F3 FF 00 00
 (1745775058.720369)  can0       200   [8]  00 00 02 00 FA 01 64 01
 (1745775058.720371)  can0       180   [8]  F7 DB 00 00 00 01 00 00
 (1745775058.722152)  can0  18FEE61C   [8]  43 00 00 00 1C FC 00 00
 (1745775058.722153)  can0  18FEE71C   [8]  0C 00 CD FF F4 FF 00 00
 (1745775058.737105)  can0  18FEE81C   [8]  4D 59 A0 5A D7 59 01 00
 (1745775058.737106)  can0  18FEF31C   [8]  28 03 70 4B 7F 8D 50 B2
 (1745775058.738146)  can0  18FEF41C   [8]  64 51 00 00 4F 3B 05 00
 (1745775058.738147)  can0  18FEF61C   [8]  2C 04 0E 00 00 00 00 00
 (1745775058.740489)  can0       200   [8]  00 00 02 00 FA 01 64 01
 (1745775058.740491)  can0       180   [8]  F7 DB 00 00 00 01 00 00
 (1745775058.741769)  can0  18FEE61C   [8]  47 00 00 00 19 FC 00 00
 (1745775058.741770)  can0  18FEE71C   [8]  0C 00 CD FF F5 FF 00 00
 (1745775058.760360)  can0       200   [8]  00 00 02 00 FA 01 64 01
 (1745775058.760362)  can0       180   [8]  F7 DB 00 00 00 01 00 00
 (1745775058.763445)  can0  18FEE61C   [8]  45 00 00 00 1B FC 00 00
 (1745775058.763447)  can0  18FEE71C   [8]  0B 00 CC FF F4 FF 00 00
 (1745775058.780766)  can0       200   [8]  00 00 02 00 FA 01 64 01
 (1745775058.780767)  can0       180   [8]  F7 DB 00 00 00 01 00 00
 (1745775058.783052)  can0  18FEE61C   [8]  47 00 00 00 19 FC 00 00
 (1745775058.783054)  can0  18FEE71C   [8]  0A 00 C8 FF F3 FF 00 00
 (1745775058.800728)  can0       200   [8]  00 00 02 00 FA 01 64 01
 (1745775058.800729)  can0       180   [8]  F7 DB 00 00 00 01 00 00
 (1745775058.801374)  can0       180   [8]  F7 DB 00 00 00 01 00 00
 (1745775058.802840)  can0  18FEE61C   [8]  44 00 00 00 1A FC 00 00
 (1745775058.802841)  can0  18FEE71C   [8]  08 00 CA FF F3 FF 00 00
 (1745775058.820745)  can0       200   [8]  00 00 02 00 FA 01 64 01
 (1745775058.820747)  can0       180   [8]  F7 DB 00 00 00 01 00 00
 (1745775058.824090)  can0  18FEE61C   [8]  44 00 00 00 1A FC 00 00
 (1745775058.824091)  can0  18FEE71C   [8]  08 00 C6 FF F2 FF 00 00
 (1745775058.830874)  can0       200   [8]  00 00 02 00 FA 01 64 01
 (1745775058.830875)  can0       180   [8]  F7 DB 00 00 00 01 00 00
 (1745775058.842222)  can0  18FEE81C   [8]  4D 59 9E 5A D6 59 01 00
 (1745775058.842224)  can0  18FEF31C   [8]  28 03 70 4B 7F 8D 50 B2
 (1745775058.843444)  can0  18FEF41C   [8]  64 51 00 00 51 3B 05 00
 (1745775058.843445)  can0  18FEF61C   [8]  2C 04 0F 00 00 00 00 00
 (1745775058.844459)  can0  18FEE61C   [8]  42 00 00 00 1A FC 00 00
 (1745775058.844460)  can0  18FEE71C   [8]  09 00 CB FF F3 FF 00 00
 (1745775058.850931)  can0       200   [8]  00 00 02 00 FA 01 64 01
 (1745775058.850933)  can0       180   [8]  F7 DB 00 00 00 01 00 00
 (1745775058.864348)  can0  18FEE61C   [8]  42 00 00 00 1A FC 00 00
 (1745775058.864349)  can0  18FEE71C   [8]  0C 00 C8 FF F4 FF 00 00
 (1745775058.870848)  can0       200   [8]  00 00 02 00 FA 01 64 01
 (1745775058.870849)  can0       180   [8]  F7 DB 00 00 00 01 00 00
 (1745775058.883917)  can0  18FEE61C   [8]  41 00 00 00 1A FC 00 00
 (1745775058.883919)  can0  18FEE71C   [8]  0D 00 CB FF F4 FF 00 00
 (1745775058.891228)  can0       200   [8]  00 00 02 00 FA 01 64 01
 (1745775058.891229)  can0       180   [8]  F7 DB 00 00 00 01 00 00
 (1745775058.905548)  can0  18FEE61C   [8]  40 00 00 00 1B FC 00 00
 (1745775058.905550)  can0  18FEE71C   [8]  0D 00 C5 FF F3 FF 00 00
 (1745775058.910853)  can0       200   [8]  00 00 02 00 FA 01 64 01
 (1745775058.910855)  can0       180   [8]  F7 DB 00 00 00 01 00 00
 (1745775058.924560)  can0  18FEE61C   [8]  41 00 00 00 1A FC 00 00
 (1745775058.924562)  can0  18FEE71C   [8]  0F 00 CA FF F4 FF 00 00
 (1745775058.930418)  can0       200   [8]  00 00 02 00 FA 01 64 01
 (1745775058.930420)  can0       180   [8]  F7 DB 00 00 00 01 00 00
 (1745775058.946504)  can0  18FEE81C   [8]  4C 59 9B 5A D6 59 02 00
 (1745775058.946506)  can0  18FEF31C   [8]  28 03 70 4B 7F 8D 50 B2
 (1745775058.947261)  can0  18FEF41C   [8]  64 51 00 00 52 3B 05 00
 (1745775058.947263)  can0  18FEF61C   [8]  2C 04 06 00 00 00 00 00
 (1745775058.948753)  can0  18FEE61C   [8]  3F 00 00 00 1B FC 00 00
 (1745775058.948753)  can0  18FEE71C   [8]  10 00 C7 FF F5 FF 00 00
 (1745775058.950374)  can0       200   [8]  00 00 02 00 FA 01 64 01
 (1745775058.950376)  can0       300   [1]  00
 (1745775058.950377)  can0       180   [8]  F7 DB 00 00 00 01 00 00
 (1745775058.951625)  can0       280   [8]  00 31 47 02 01 02 00 00
 (1745775058.966136)  can0  18FEE61C   [8]  41 00 00 00 19 FC 00 00
 (1745775058.966137)  can0  18FEE71C   [8]  11 00 C9 FF F6 FF 00 00
 (1745775058.970391)  can0       200   [8]  00 00 02 00 FA 01 64 01
 (1745775058.970392)  can0       180   [8]  F7 DB 00 00 00 01 00 00
 (1745775058.985766)  can0  18FEE61C   [8]  3F 00 00 00 1B FC 00 00
 (1745775058.985767)  can0  18FEE71C   [8]  11 00 C4 FF F6 FF 00 00
 (1745775058.990402)  can0       200   [8]  00 00 02 00 FA 01 64 01
 (1745775058.990403)  can0       180   [8]  F7 DB 00 00 00 01 00 00
 (1745775059.006801)  can0  18FEE61C   [8]  40 00 00 00 18 FC 00 00
 (1745775059.006804)  can0  18FEE71C   [8]  11 00 C1 FF F5 FF 00 00
 (1745775059.010344)  can0       200   [8]  00 00 02 00 FA 01 64 01
 (1745775059.010345)  can0       180   [8]  F7 DB 00 00 00 01 00 00
 (1745775059.020872)  can0       200   [8]  00 00 02 00 FA 01 64 01
 (1745775059.020874)  can0       180   [8]  F7 DB 00 00 00 01 00 00
 (1745775059.026226)  can0  18FEE61C   [8]  38 00 00 00 1C FC 00 00
 (1745775059.026228)  can0  18FEE71C   [8]  12 00 BD FF F5 FF 00 00
 (1745775059.040773)  can0       200   [8]  00 00 02 00 FA 01 64 01
 (1745775059.040775)  can0       180   [8]  F7 DB 00 00 00 01 00 00
 (1745775059.048046)  can0  18FEE61C   [8]  36 00 00 00 19 FC 00 00
 (1745775059.048047)  can0  18FEE71C   [8]  14 00 BD FF F4 FF 00 00
 (1745775059.051523)  can0  18FEE81C   [8]  4C 59 97 5A D6 59 03 00
 (1745775059.051525)  can0  18FEF31C   [8]  28 03 70 4B 7F 8D 50 B2
 (1745775059.052279)  can0  18FEF41C   [8]  64 51 00 00 53 3B 05 00
 (1745775059.052280)  can0  18FEF61C   [8]  2C 04 07 00 00 00 00 00
 (1745775059.060872)  can0       200   [8]  00 00 02 00 FA 01 64 01
 (1745775059.060873)  can0       180   [8]  F7 DB 00 00 00 01 00 00
 (1745775059.069497)  can0  18FEE61C   [8]  33 00 FF FF 1B FC 00 00
 (1745775059.069500)  can0  18FEE71C   [8]  13 00 C1 FF F2 FF 00 00
 (1745775059.080773)  can0       200   [8]  00 00 02 00 FA 01 64 01
 (1745775059.080774)  can0       180   [8]  F7 DB 00 00 00 01 00 00
 (1745775059.088867)  can0  18FEE61C   [8]  37 00 FF FF 17 FC 00 00
 (1745775059.088868)  can0  18FEE71C   [8]  10 00 BD FF F0 FF 00 00
 (1745775059.100844)  can0       200   [8]  00 00 02 00 FA 01 64 01
 (1745775059.100846)  can0       180   [8]  F7 DB 00 00 00 01 00 00
 (1745775059.108771)  can0  18FEE61C   [8]  34 00 FF FF 19 FC 00 00
 (1745775059.108772)  can0  18FEE71C   [8]  0E 00 BA FF F0 FF 00 00
 (1745775059.120791)  can0       200   [8]  00 00 02 00 FA 01 64 01
 (1745775059.120792)  can0       180   [8]  F7 DB 00 00 00 01 00 00
 (1745775059.129936)  can0  18FEE61C   [8]  33 00 00 00 17 FC 00 00
 (1745775059.129938)  can0  18FEE71C   [8]  0E 00 B2 FF F1 FF 00 00
 (1745775059.140402)  can0       200   [8]  00 00 02 00 FA 01 64 01
 (1745775059.140404)  can0       180   [8]  F7 DB 00 00 00 01 00 00
 (1745775059.149315)  can0  18FEE61C   [8]  2A 00 00 00 1A FC 00 00
 (1745775059.149316)  can0  18FEE71C   [8]  0F 00 B0 FF F2 FF 00 00
 (1745775059.156036)  can0  18FEE81C   [8]  4C 59 8D 5A D7 59 03 00
 (1745775059.156038)  can0  18FEF31C   [8]  27 03 70 4B 7F 8D 50 B2
 (1745775059.157299)  can0  18FEF41C   [8]  64 51 00 00 54 3B 05 00
 (1745775059.157300)  can0  18FEF61C   [8]  2C 04 09 00 00 00 00 00
 (1745775059.160517)  can0       200   [8]  00 00 02 00 FA 01 64 01
 (1745775059.160518)  can0       180   [8]  F7 DB 00 00 00 01 00 00
 (1745775059.171196)  can0  18FEE61C   [8]  26 00 00 00 19 FC 00 00
 (1745775059.171198)  can0  18FEE71C   [8]  0E 00 A9 FF F1 FF 00 00
 (1745775059.180505)  can0       200   [8]  00 00 02 00 FA 01 64 01
 (1745775059.180506)  can0       180   [8]  F7 DB 00 00 00 01 00 00
 (1745775059.190640)  can0  18FEE61C   [8]  20 00 00 00 19 FC 00 00
 (1745775059.190641)  can0  18FEE71C   [8]  0E 00 AD FF F2 FF 00 00
 (1745775059.200452)  can0       200   [8]  00 00 02 00 FA 01 64 01
 (1745775059.200453)  can0       180   [8]  F7 DB 00 00 00 01 00 00
 (1745775059.210665)  can0  18FEE61C   [8]  23 00 FF FF 17 FC 00 00
 (1745775059.210666)  can0  18FEE71C   [8]  0F 00 A5 FF F3 FF 00 00
 (1745775059.220376)  can0       200   [8]  00 00 02 00 FA 01 64 01
 (1745775059.220377)  can0       180   [8]  F7 DB 00 00 00 01 00 00
 (1745775059.231014)  can0  18FEE61C   [8]  1F 00 FE FF 17 FC 00 00
 (1745775059.231015)  can0  18FEE71C   [8]  10 00 A5 FF F3 FF 00 00
 (1745775059.240338)  can0       200   [8]  00 00 02 00 FA 01 64 01
 (1745775059.240339)  can0       180   [8]  F7 DB 00 00 00 01 00 00
 (1745775059.250393)  can0  18FEE61C   [8]  1E 00 FD FF 16 FC 00 00
 (1745775059.250394)  can0       200   [8]  00 00 02 00 FA 01 64 01
 (1745775059.251448)  can0  18FEE71C   [8]  0D 00 9A FF F3 FF 00 00
 (1745775059.251449)  can0       180   [8]  F7 DB 00 00 00 01 00 00
 (1745775059.260890)  can0  18FEE81C   [8]  4C 59 7B 5A D7 59 07 00
 (1745775059.260891)  can0  18FEF31C   [8]  27 03 70 4B 7F 8D 50 B2
 (1745775059.261586)  can0  18FEF41C   [8]  64 51 00 00 55 3B 05 00
 (1745775059.261587)  can0  18FEF61C   [8]  2C 04 09 00 00 00 00 00
 (1745775059.270866)  can0       200   [8]  00 00 02 00 FA 01 64 01
 (1745775059.270868)  can0       180   [8]  F7 DB 00 00 00 01 00 00
 (1745775059.272491)  can0  18FEE61C   [8]  15 00 FD FF 17 FC 00 00
 (1745775059.272492)  can0  18FEE71C   [8]  0D 00 9C FF F6 FF 00 00
 (1745775059.291137)  can0       200   [8]  00 00 02 00 FA 01 64 01
 (1745775059.291138)  can0       180   [8]  F7 DB 00 00 00 01 00 00
 (1745775059.291910)  can0  18FEE61C   [8]  10 00 FC FF 17 FC 00 00
 (1745775059.291911)  can0  18FEE71C   [8]  0C 00 93 FF F8 FF 00 00
 (1745775059.310799)  can0       200   [8]  00 00 02 00 FA 01 64 01
 (1745775059.310800)  can0       180   [8]  F7 DB 00 00 00 01 00 00
 (1745775059.311650)  can0  18FEE61C   [8]  05 00 FC FF 18 FC 00 00
 (1745775059.311651)  can0  18FEE71C   [8]  0C 00 98 FF F9 FF 00 00
 (1745775059.330850)  can0       200   [8]  00 00 02 00 FA 01 64 01
 (1745775059.330852)  can0       180   [8]  F7 DB 00 00 00 01 00 00
 (1745775059.333493)  can0  18FEE61C   [8]  03 00 FB FF 17 FC 00 00
 (1745775059.333494)  can0  18FEE71C   [8]  0A 00 8F FF FA FF 00 00
 (1745775059.350842)  can0       200   [8]  00 00 02 00 FA 01 64 01
 (1745775059.350843)  can0       180   [8]  F7 DB 00 00 00 01 00 00
 (1745775059.353256)  can0  18FEE61C   [8]  FE FF FB FF 18 FC 00 00
 (1745775059.353258)  can0  18FEE71C   [8]  08 00 96 FF FB FF 00 00
 (1745775059.360519)  can0       300   [1]  00
 (1745775059.360521)  can0       280   [8]  00 31 47 02 01 02 00 00
 (1745775059.365619)  can0  18FEE81C   [8]  4B 59 5F 5A D8 59 11 00
 (1745775059.365620)  can0  18FEF31C   [8]  26 03 70 4B 7F 8D 50 B2
 (1745775059.366394)  can0  18FEF41C   [8]  64 51 00 00 57 3B 05 00
 (1745775059.366396)  can0  18FEF61C   [8]  2C 04 0B 00 00 00 00 00
 (1745775059.370892)  can0       200   [8]  00 00 02 00 FA 01 64 01
 (1745775059.370893)  can0       180   [8]  F7 DB 00 00 00 01 00 00
 (1745775059.372937)  can0  18FEE61C   [8]  FD FF F9 FF 16 FC 00 00
 (1745775059.372938)  can0  18FEE71C   [8]  04 00 8B FF FB FF 00 00
 (1745775059.390789)  can0       200   [8]  00 00 02 00 FA 01 64 01
 (1745775059.390791)  can0       180   [8]  F7 DB 00 00 00 01 00 00
 (1745775059.394413)  can0  18FEE61C   [8]  F4 FF F9 FF 19 FC 00 00
 (1745775059.394414)  can0  18FEE71C   [8]  01 00 91 FF FC FF 00 00
 (1745775059.410368)  can0       200   [8]  00 00 02 00 FA 01 64 01
 (1745775059.410369)  can0       180   [8]  F7 DB 00 00 00 01 00 00
 (1745775059.413791)  can0  18FEE61C   [8]  F1 FF F9 FF 18 FC 00 00
 (1745775059.413793)  can0  18FEE71C   [8]  FF FF 87 FF FD FF 00 00
 (1745775059.430184)  can0       200   [8]  00 00 02 00 FA 01 64 01
 (1745775059.430185)  can0       180   [8]  F7 DB 00 00 00 01 00 00
 (1745775059.435287)  can0  18FEE61C   [8]  E4 FF FB FF 1C FC 00 00
 (1745775059.435289)  can0  18FEE71C   [8]  FE FF 8E FF 00 00 00 00
 (1745775059.450794)  can0       200   [8]  00 00 02 00 FA 01 64 01
 (1745775059.450796)  can0       180   [8]  F7 DB 00 00 00 01 00 00
 (1745775059.454337)  can0  18FEE61C   [8]  E3 FF FE FF 1A FC 00 00
 (1745775059.454338)  can0  18FEE71C   [8]  FE FF 8A FF FF FF 00 00
 (1745775059.460812)  can0       200   [8]  00 00 02 00 FA 01 64 01
 (1745775059.460813)  can0       180   [8]  F7 DB 00 00 00 01 00 00
 (1745775059.469703)  can0  18FEE81C   [8]  4A 59 39 5A D9 59 28 00
 (1745775059.469705)  can0  18FEF31C   [8]  24 03 70 4B 7F 8D 50 B2
 (1745775059.471266)  can0  18FEF41C   [8]  64 51 00 00 58 3B 05 00
 (1745775059.471267)  can0  18FEF61C   [8]  2C 04 0C 00 00 00 00 00
 (1745775059.475174)  can0  18FEE61C   [8]  D6 FF 03 00 1E FC 00 00
 (1745775059.475176)  can0  18FEE71C   [8]  00 00 91 FF 00 00 00 00
 (1745775059.480490)  can0       200   [8]  00 00 02 00 FA 01 64 01
 (1745775059.480492)  can0       180   [8]  F7 DB 00 00 00 01 00 00
 (1745775059.496165)  can0  18FEE61C   [8]  D8 FF 08 00 19 FC 00 00
 (1745775059.496166)  can0  18FEE71C   [8]  01 00 8C FF 00 00 00 00
 (1745775059.500367)  can0       200   [8]  00 00 02 00 FA 01 64 01
 (1745775059.500368)  can0       180   [8]  F7 DB 00 00 00 01 00 00
 (1745775059.516010)  can0  18FEE61C   [8]  CC FF 0E 00 1F FC 00 00
 (1745775059.516012)  can0  18FEE71C   [8]  0A 00 91 FF 01 00 00 00
 (1745775059.520838)  can0       200   [8]  00 00 02 00 FA 01 64 01
 (1745775059.520839)  can0       180   [8]  F7 DB 00 00 00 01 00 00
 (1745775059.537685)  can0  18FEE61C   [8]  CB FF 11 00 1A FC 00 00
 (1745775059.537686)  can0  18FEE71C   [8]  12 00 8C FF 00 00 00 00
 (1745775059.540796)  can0       200   [8]  00 00 02 00 FA 01 64 01
 (1745775059.540797)  can0       180   [8]  F7 DB 00 00 00 01 00 00
 (1745775059.557243)  can0  18FEE61C   [8]  BE FF 15 00 1F FC 00 00
 (1745775059.557244)  can0  18FEE71C   [8]  1B 00 8C FF FF FF 00 00
 (1745775059.560437)  can0       200   [8]  00 00 02 00 FA 01 64 01
 (1745775059.560438)  can0       180   [8]  F7 DB 00 00 00 01 00 00
 (1745775059.574426)  can0  18FEE81C   [8]  47 59 1D 5A D7 59 49 00
 (1745775059.574427)  can0  18FEF31C   [8]  22 03 70 4B 7F 8D 50 B2
 (1745775059.575907)  can0  18FEF41C   [8]  64 51 00 00 59 3B 05 00
 (1745775059.575908)  can0  18FEF61C   [8]  2C 04 0D 00 00 00 00 00
 (1745775059.577539)  can0  18FEE61C   [8]  C3 FF 11 00 16 FC 00 00
 (1745775059.577540)  can0  18FEE71C   [8]  22 00 90 FF F9 FF 00 00
 (1745775059.580877)  can0       200   [8]  00 00 02 00 FA 01 64 01
 (1745775059.580879)  can0       180   [8]  F7 DB 00 00 00 01 00 00
 (1745775059.597168)  can0  18FEE61C   [8]  BD FF 0F 00 1A FC 00 00
 (1745775059.597169)  can0  18FEE71C   [8]  2A 00 87 FF F7 FF 00 00
 (1745775059.600971)  can0       200   [8]  00 00 02 00 FA 01 64 01
 (1745775059.600972)  can0       180   [8]  F7 DB 00 00 00 01 00 00
 (1745775059.618671)  can0  18FEE61C   [8]  C0 FF 07 00 11 FC 00 00
 (1745775059.618673)  can0  18FEE71C   [8]  2D 00 81 FF F2 FF 00 00
 (1745775059.620828)  can0       200   [8]  00 00 02 00 FA 01 64 01
 (1745775059.620829)  can0       180   [8]  F7 DB 00 00 00 01 00 00
 (1745775059.640352)  can0  18FEE61C   [8]  B4 FF 04 00 15 FC 00 00
 (1745775059.640353)  can0       200   [8]  00 00 02 00 FA 01 64 01
 (1745775059.641068)  can0  18FEE71C   [8]  2A 00 6A FF EC FF 00 00
 (1745775059.641070)  can0       180   [8]  F7 DB 00 00 00 01 00 00
 (1745775059.659945)  can0  18FEE61C   [8]  B3 FF 00 00 0E FC 00 00
 (1745775059.659947)  can0  18FEE71C   [8]  28 00 64 FF E5 FF 00 00
 (1745775059.660623)  can0       200   [8]  00 00 02 00 FA 01 64 01
 (1745775059.660625)  can0       180   [8]  F7 DB 00 00 00 01 00 00
 (1745775059.679347)  can0  18FEE81C   [8]  46 59 FB 59 D9 59 84 00
 (1745775059.679349)  can0  18FEF31C   [8]  1E 03 70 4B 7F 8D 50 B2
 (1745775059.680146)  can0  18FEF41C   [8]  64 51 00 00 59 3B 05 00
 (1745775059.680147)  can0       200   [8]  00 00 02 00 FA 01 64 01
 (1745775059.681516)  can0  18FEF61C   [8]  2C 04 0E 00 00 00 00 00
 (1745775059.681518)  can0       180   [8]  F7 DB 00 00 00 01 00 00
 (1745775059.682407)  can0  18FEE61C   [8]  AD FF 00 00 14 FC 00 00
 (1745775059.682409)  can0  18FEE71C   [8]  24 00 47 FF DD FF 00 00
 (1745775059.690992)  can0       200   [8]  00 00 02 00 FA 01 64 01
 (1745775059.690993)  can0       180   [8]  F7 DB 00 00 00 01 00 00
 (1745775059.703472)  can0  18FEE61C   [8]  B0 FF F9 FF 18 FC 00 00
 (1745775059.703473)  can0  18FEE71C   [8]  21 00 37 FF D1 FF 00 00
 (1745775059.710260)  can0       200   [8]  32 00 01 00 FA 01 64 01
 (1745775059.710261)  can0       180   [8]  F7 DB 00 00 00 01 00 00
 (1745775059.725409)  can0  18FEE61C   [8]  B5 FF E7 FF 1D FC 00 00
 (1745775059.725410)  can0  18FEE71C   [8]  18 00 0D FF C5 FF 00 00
 (1745775059.730395)  can0       200   [8]  32 00 01 00 FA 01 64 01
 (1745775059.730397)  can0       180   [8]  F4 DB B8 0B 02 05 0E 00
 (1745775059.744605)  can0  18FEE61C   [8]  B4 FF CE FF 20 FC 00 00
 (1745775059.744607)  can0  18FEE71C   [8]  07 00 E5 FE BC FF 00 00
 (1745775059.750444)  can0       200   [8]  32 00 01 00 FA 01 64 01
 (1745775059.750445)  can0       300   [1]  00
 (1745775059.750445)  can0       180   [8]  DD DB 58 1B 0A 05 22 00
 (1745775059.751715)  can0       280   [8]  00 31 46 02 01 02 00 00
 (1745775059.766164)  can0  18FEE61C   [8]  A6 FF AD FF 14 FC 00 00
 (1745775059.766166)  can0  18FEE71C   [8]  E2 FF 96 FE B9 FF 00 00
 (1745775059.770398)  can0       200   [8]  32 00 01 00 FA 01 64 01
 (1745775059.770399)  can0       180   [8]  A3 DB 28 23 14 05 2C 00
 (1745775059.783694)  can0  18FEE81C   [8]  4A 59 D5 59 DB 59 CF 00
 (1745775059.783695)  can0  18FEF31C   [8]  19 03 70 4B 7F 8D 50 B2
 (1745775059.784464)  can0  18FEF41C   [8]  64 51 00 00 5B 3B 05 00
 (1745775059.784466)  can0  18FEF61C   [8]  2C 04 0F 00 00 00 00 00
 (1745775059.786451)  can0  18FEE61C   [8]  79 FF AA FF 16 FC 00 00
 (1745775059.786452)  can0  18FEE71C   [8]  B6 FF 66 FE BE FF 00 00
 (1745775059.790612)  can0       200   [8]  32 00 01 00 FA 01 64 01
 (1745775059.790613)  can0       180   [8]  41 DB 10 27 20 05 31 00
 (1745775059.806321)  can0  18FEE61C   [8]  48 FF BD FF 0C FC 00 00
 (1745775059.806323)  can0  18FEE71C   [8]  90 FF 3E FE CB FF 00 00
 (1745775059.810502)  can0       200   [8]  32 00 01 00 FA 01 64 01
 (1745775059.810503)  can0       180   [8]  B3 DA 10 27 2E 05 31 00
 (1745775059.825809)  can0  18FEE61C   [8]  F7 FE EB FF 08 FC 00 00
 (1745775059.825810)  can0  18FEE71C   [8]  7C FF 32 FE D9 FF 00 00
 (1745775059.830868)  can0       200   [8]  32 00 01 00 FA 01 64 01
 (1745775059.830870)  can0       180   [8]  03 DA 58 1B 35 05 22 00
 (1745775059.847448)  can0  18FEE61C   [8]  C7 FE 16 00 FF FB 00 00
 (1745775059.847450)  can0  18FEE71C   [8]  80 FF 75 FE E2 FF 00 00
 (1745775059.851096)  can0       200   [8]  32 00 01 00 FA 01 64 01
 (1745775059.851097)  can0       180   [8]  4D D9 88 13 39 05 18 00
 (1745775059.866402)  can0  18FEE61C   [8]  9B FE 38 00 EF FB 00 00
 (1745775059.866404)  can0  18FEE71C   [8]  9A FF AE FE E5 FF 00 00
 (1745775059.871083)  can0       200   [8]  32 00 01 00 FA 01 64 01
 (1745775059.871084)  can0       180   [8]  9F D8 A0 0F 36 05 13 00
 (1745775059.888641)  can0  18FEE81C   [8]  4F 59 83 59 CD 59 19 01
 (1745775059.888642)  can0  18FEF31C   [8]  13 03 70 4B 80 8D 50 B2
 (1745775059.889124)  can0  18FEF41C   [8]  64 51 00 00 5C 3B 05 00
 (1745775059.889125)  can0  18FEF61C   [8]  2C 04 06 00 00 00 00 00
 (1745775059.890654)  can0  18FEE61C   [8]  7E FE 4A 00 E7 FB 00 00
 (1745775059.890655)  can0       200   [8]  32 00 01 00 FA 01 64 01
 (1745775059.891400)  can0  18FEE71C   [8]  CA FF 40 FF E6 FF 00 00
 (1745775059.891401)  can0       180   [8]  F7 D7 88 13 33 05 18 00
 (1745775059.908470)  can0  18FEE61C   [8]  87 FE 3F 00 D8 FB 00 00
 (1745775059.908472)  can0  18FEE71C   [8]  F4 FF A8 FF E6 FF 00 00
 (1745775059.910823)  can0       200   [8]  32 00 01 00 FA 01 64 01
 (1745775059.910824)  can0       180   [8]  50 D7 A0 0F 32 05 13 00
 (1745775059.927975)  can0  18FEE61C   [8]  85 FE 2A 00 E3 FB 00 00
 (1745775059.927976)  can0  18FEE71C   [8]  0E 00 27 00 DD FF 00 00
 (1745775059.930798)  can0       200   [8]  32 00 01 00 FA 01 64 01
 (1745775059.930799)  can0       180   [8]  AB D6 A0 0F 34 05 13 00
 (1745775059.947899)  can0  18FEE61C   [8]  AB FE 00 00 EA FB 00 00
 (1745775059.947900)  can0  18FEE71C   [8]  18 00 B9 00 D3 FF 00 00
 (1745775059.951016)  can0       200   [8]  32 00 01 00 FA 01 64 01
 (1745775059.951017)  can0       180   [8]  07 D6 88 13 33 05 18 00
 (1745775059.960285)  can0       200   [8]  32 00 01 00 FA 01 64 01
 (1745775059.960287)  can0       180   [8]  B5 D5 88 13 32 05 18 00
 (1745775059.967930)  can0  18FEE61C   [8]  BB FE D4 FF F4 FB 00 00
 (1745775059.967930)  can0  18FEE71C   [8]  07 00 0E 01 CD FF 00 00
 (1745775059.980787)  can0       200   [8]  32 00 01 00 FA 01 64 01
 (1745775059.980789)  can0       180   [8]  0D D5 88 13 33 05 18 00
 (1745775059.987823)  can0  18FEE61C   [8]  E7 FE B7 FF 14 FC 00 00
 (1745775059.987825)  can0  18FEE71C   [8]  E1 FF B3 01 CE FF 00 00
 (1745775059.993765)  can0  18FEE81C   [8]  4E 59 50 59 C7 59 63 01
 (1745775059.993767)  can0  18FEF31C   [8]  09 03 70 4B 81 8D 50 B2
 (1745775059.994875)  can0  18FEF41C   [8]  64 51 00 00 5D 3B 05 00
 (1745775059.994876)  can0  18FEF61C   [8]  2C 04 07 00 00 00 00 00
 (1745775060.000466)  can0       200   [8]  32 00 01 00 FA 01 64 01
 (1745775060.000468)  can0       180   [8]  66 D4 88 13 34 05 18 00
 (1745775060.008002)  can0  18FEE61C   [8]  2E FF BB FF 20 FC 00 00
 (1745775060.008003)  can0  18FEE71C   [8]  AE FF F4 01 D5 FF 00 00
 (1745775060.020821)  can0       200   [8]  32 00 01 00 FA 01 64 01
 (1745775060.020822)  can0       180   [8]  BF D3 88 13 31 05 18 00
 (1745775060.029492)  can0  18FEE61C   [8]  64 FF EE FF 3A FC 00 00
 (1745775060.029494)  can0  18FEE71C   [8]  8D FF 49 02 D9 FF 00 00
 (1745775060.040818)  can0       200   [8]  32 00 01 00 FA 01 64 01
 (1745775060.040819)  can0       180   [8]  1C D3 88 13 31 05 18 00
 (1745775060.049172)  can0  18FEE61C   [8]  D1 FF 3B 00 41 FC 00 00
 (1745775060.049173)  can0  18FEE71C   [8]  8C FF 6A 02 D4 FF 00 00
 (1745775060.060793)  can0       200   [8]  32 00 01 00 FA 01 64 01
 (1745775060.060795)  can0       180   [8]  74 D2 88 13 2F 05 18 00
 (1745775060.070208)  can0  18FEE61C   [8]  18 00 84 00 4D FC 00 00
 (1745775060.070209)  can0  18FEE71C   [8]  BC FF 39 02 C0 FF 00 00
 (1745775060.080847)  can0       200   [8]  32 00 01 00 FA 01 64 01
 (1745775060.080848)  can0       180   [8]  CE D1 88 13 31 05 18 00
 (1745775060.090223)  can0  18FEE61C   [8]  71 00 87 00 51 FC 00 00
 (1745775060.090224)  can0  18FEE71C   [8]  F9 FF 0F 02 AA FF 00 00
 (1745775060.098668)  can0  18FEE81C   [8]  4C 59 85 59 BB 59 FA 01
 (1745775060.098669)  can0  18FEF31C   [8]  FC 02 70 4B 81 8D 50 B2
 (1745775060.099429)  can0  18FEF41C   [8]  64 51 00 00 5E 3B 05 00
 (1745775060.099430)  can0  18FEF61C   [8]  2C 04 08 00 00 00 00 00
